#  HZ   S   DB   R     50.00 
! Rohde & Schwarz ZVA50 4Ports - Version 4.11 - 1145.1110k52 SN: 100136
! Date: 2022-09-20 22:20:21
! Measurements: S11 S21 S12 S22 
! 
 1.000000000000000E8    -2.451706299342166E1   9.166619815857999E1  -5.710084332204498E1   6.338664967224805E1   2.051991558181664E1  -1.782652011297419E2  -7.650693968067675E-2  -1.444285371724986  
 2.000000000000000E8    -2.060713667433235E1   6.496033198024792E1  -4.917692177850915E1   7.673556450617969E1   2.073906427802054E1  -1.781281765402308E2  -6.912673669915798E-2  -3.315771652408592  
 3.000000000000000E8    -1.824010539291806E1   4.864408558406279E1  -4.607057022167655E1   8.360566936182585E1   2.098153896749452E1  -1.787907800710386E2  -3.635973150328604E-2  -5.183460861581988  
 4.000000000000000E8    -1.684865432795609E1   3.498538129924192E1  -4.329490485071557E1   8.486342528618752E1   2.114278564063008E1   1.798698614262317E2  -4.380676893835051E-2  -7.032189273749250  
 5.000000000000000E8    -1.595230613798586E1   2.415366640855677E1  -4.087942187731252E1   8.456793772356348E1   2.124420035327019E1   1.786430368217785E2  -3.482163793128470E-2  -8.828917715410384  
 6.000000000000000E8    -1.524676581954197E1   1.478961379848166E1  -3.907636091657685E1   8.464094914145916E1   2.134570686260175E1   1.772460991486615E2  -2.520762859093120E-2  -1.056704599412798E1  
 7.000000000000000E8    -1.482642201107505E1   7.240388120905449  -3.783615280798972E1   8.364884200266023E1   2.136266426521946E1   1.759126505895034E2  -3.815074491258272E-2  -1.239689906958757E1  
 8.000000000000000E8    -1.440397449141691E1   3.676849543033021E-1  -3.654827441088489E1   8.317185795135717E1   2.139798288623955E1   1.747676296831333E2  -4.681651726568035E-2  -1.410653270517612E1  
 9.000000000000000E8    -1.407496564213175E1  -5.915654564741765  -3.550467909086246E1   8.201531495998520E1   2.142161578290961E1   1.735133343401934E2  -4.680435050303745E-2  -1.593179786666717E1  
 1.000000000000000E9    -1.383545791604013E1  -1.160939461090926E1  -3.455281828759915E1   8.091595246039194E1   2.143084384986103E1   1.722282084653100E2  -5.356816902052902E-2  -1.771426442701583E1  
 1.100000000000000E9    -1.358668547002458E1  -1.672583439346102E1  -3.371995036405101E1   8.005198487998339E1   2.143568034326031E1   1.710822201649855E2  -5.929578266894393E-2  -1.945520817011897E1  
 1.200000000000000E9    -1.329670773213547E1  -2.142793129854679E1  -3.294456935392005E1   7.888086299526434E1   2.142029218143637E1   1.698488156815406E2  -7.082632091125470E-2  -2.121396350527778E1  
 1.300000000000000E9    -1.305207062904238E1  -2.592422540633334E1  -3.225622929910568E1   7.807972229379459E1   2.140452123945185E1   1.687176762528001E2  -8.271161073225798E-2  -2.292710142515685E1  
 1.400000000000000E9    -1.295461145830602E1  -2.989281274266541E1  -3.167420442611629E1   7.710914347129403E1   2.139692823226167E1   1.675989034311678E2  -8.648613703276281E-2  -2.463170015105593E1  
 1.500000000000000E9    -1.265636890146823E1  -3.384438264060894E1  -3.106627672137449E1   7.618730032923418E1   2.137357446267753E1   1.662763041996431E2  -9.742189310555986E-2  -2.644719336772564E1  
 1.600000000000000E9    -1.246336848969871E1  -3.744593663014545E1  -3.053821023414713E1   7.531373101918491E1   2.134849269956609E1   1.652734607993297E2  -9.649605250453865E-2  -2.811050013780902E1  
 1.700000000000000E9    -1.225575427092827E1  -4.129271000806309E1  -3.004424808640846E1   7.440371617578185E1   2.131835382195982E1   1.641520929329259E2  -1.145231950117612E-1  -2.985273340017671E1  
 1.800000000000000E9    -1.205633944909506E1  -4.425690539369528E1  -2.957222352907916E1   7.334476348202009E1   2.126340005930868E1   1.630701491776008E2  -1.368157226151880E-1  -3.147304791770985E1  
 1.900000000000000E9    -1.185586000593960E1  -4.783489458571260E1  -2.914504716425198E1   7.242866741827235E1   2.123807629753487E1   1.619252109361857E2  -1.410071780564957E-1  -3.329129323527551E1  
 2.000000000000000E9    -1.167711701419843E1  -5.065093756546938E1  -2.872608305229030E1   7.147011333035941E1   2.119205893155606E1   1.609608181080908E2  -1.584006011657999E-1  -3.486747373193522E1  
 2.100000000000000E9    -1.143871356218100E1  -5.371773537846713E1  -2.831766698504949E1   7.063683180682961E1   2.115568230910217E1   1.599558711711881E2  -1.673492666415038E-1  -3.655667643659383E1  
 2.200000000000000E9    -1.123424476514544E1  -5.594924062586710E1  -2.793220976895036E1   6.963918079727411E1   2.110104414136490E1   1.590247437120141E2  -1.862951392496450E-1  -3.809645127346929E1  
 2.300000000000000E9    -1.106620988988036E1  -5.868429838142713E1  -2.760465847473770E1   6.876151313294658E1   2.105767969384086E1   1.580259134754440E2  -1.975177646559294E-1  -3.972278051957667E1  
 2.400000000000000E9    -1.093340073709951E1  -6.084683998874537E1  -2.726176111368672E1   6.782467061941551E1   2.101011738784929E1   1.570797706947122E2  -2.133045844308452E-1  -4.130923327769843E1  
 2.500000000000000E9    -1.074103566724836E1  -6.395233651016334E1  -2.695251078881878E1   6.686287717107076E1   2.095481175676810E1   1.560389725418588E2  -2.378424499598410E-1  -4.295270074543578E1  
 2.600000000000000E9    -1.059962949951740E1  -6.559631999360352E1  -2.668232011160473E1   6.588311790913592E1   2.089866553502782E1   1.551287450095157E2  -2.599020167670345E-1  -4.441625769314071E1  
 2.700000000000000E9    -1.049812659474415E1  -6.846593031234067E1  -2.641058389108610E1   6.499808658500139E1   2.085806674798184E1   1.541509602400497E2  -2.784242065177792E-1  -4.604909906778327E1  
 2.800000000000000E9    -1.031577710639065E1  -7.015496459883524E1  -2.612391890653365E1   6.416188105129784E1   2.078967544394445E1   1.532287775091515E2  -2.988648057180979E-1  -4.761211331777062E1  
 2.900000000000000E9    -1.018334780905712E1  -7.216788215198089E1  -2.589200887496635E1   6.336578741284250E1   2.073494162006047E1   1.524031927077306E2  -3.144517176380764E-1  -4.896764834589610E1  
 3.000000000000000E9    -1.004684332886811E1  -7.408472354864674E1  -2.563135154745489E1   6.254421000203109E1   2.067328635041832E1   1.514660771707012E2  -3.470017588123224E-1  -5.051433165941020E1  
 3.100000000000000E9    -9.921316747064353  -7.615512044619524E1  -2.541849919650256E1   6.162777337081266E1   2.062247862749581E1   1.506279388745647E2  -3.627205123486371E-1  -5.193941590685191E1  
 3.200000000000000E9    -9.797768802803063  -7.779760234459704E1  -2.517812497192356E1   6.074209184196422E1   2.056989971760256E1   1.497384059348938E2  -3.780557725721314E-1  -5.349789329589711E1  
 3.300000000000000E9    -9.723447489253832  -7.976900607003744E1  -2.500647516239436E1   5.997463616138056E1   2.051546719825952E1   1.489210337112768E2  -3.860769283341979E-1  -5.482766362522084E1  
 3.400000000000000E9    -9.593413594700289  -8.181327155095453E1  -2.482177313339678E1   5.909394498891123E1   2.046703267304665E1   1.479930410545782E2  -4.064578875864424E-1  -5.638946696226627E1  
 3.500000000000000E9    -9.459115801481504  -8.348824197352873E1  -2.459413009151830E1   5.831996145953759E1   2.039796052436081E1   1.471267826864149E2  -4.231202525279293E-1  -5.778895755739094E1  
 3.600000000000000E9    -9.306089362186205  -8.522708507261042E1  -2.441092244057880E1   5.757773340256976E1   2.034086118336050E1   1.462461039520008E2  -4.388861308477142E-1  -5.926492281101801E1  
 3.700000000000000E9    -9.217740817100333  -8.685378514505419E1  -2.425023039467077E1   5.688634761810999E1   2.027254021633818E1   1.454793922312330E2  -4.531004747402243E-1  -6.060928649831798E1  
 3.800000000000000E9    -9.091499223225981  -8.899363681236696E1  -2.407748034970235E1   5.605982537624324E1   2.021939022438015E1   1.445341537346849E2  -4.660956099098450E-1  -6.221372489569051E1  
 3.900000000000000E9    -8.947835221418201  -8.983723744287488E1  -2.390681454990046E1   5.540620626038049E1   2.014936728859851E1   1.437795971488064E2  -4.838363619324362E-1  -6.347100104784100E1  
 4.000000000000000E9    -8.829589523165176  -9.151421167182318E1  -2.377478754397923E1   5.479686657030358E1   2.008256928654445E1   1.429365434561763E2  -5.151088020614374E-1  -6.484161869615319E1  
 4.100000000000000E9    -8.743616551293178  -9.280296454954636E1  -2.363729878320280E1   5.399052246609097E1   2.000524566879233E1   1.422612502946299E2  -5.360747796056063E-1  -6.617561786586786E1  
 4.200000000000000E9    -8.617910814708447  -9.423843532300711E1  -2.348377469888326E1   5.332655596621353E1   1.992384634513925E1   1.414604333467482E2  -5.535243581851909E-1  -6.750450660842049E1  
 4.300000000000000E9    -8.563304026375430  -9.543963402796499E1  -2.334046575703731E1   5.270256267157239E1   1.985810959094481E1   1.407342321371173E2  -5.661359828731444E-1  -6.872482430504785E1  
 4.400000000000000E9    -8.431450596565151  -9.720887707618446E1  -2.321402583023401E1   5.197744204032640E1   1.978770033914205E1   1.399365240960065E2  -5.861055357446431E-1  -7.006729435010715E1  
 4.500000000000000E9    -8.326423925113181  -9.825552067650118E1  -2.309230395142739E1   5.127342374125123E1   1.971719211854501E1   1.392309792762242E2  -6.108927676238717E-1  -7.122856853673291E1  
 4.600000000000000E9    -8.225461179326173  -9.954248825935379E1  -2.297781736142688E1   5.059291119968424E1   1.964250293963405E1   1.384662439660260E2  -6.305412349879535E-1  -7.256587565229430E1  
 4.700000000000000E9    -8.158083648051616  -1.008217605743814E2  -2.286006998351170E1   4.996351846632857E1   1.957032843439019E1   1.377963087337774E2  -6.483408718830923E-1  -7.370972329811521E1  
 4.800000000000000E9    -8.000369345563490  -1.018700699907600E2  -2.273821636770271E1   4.941267904464304E1   1.950016803030071E1   1.370966097336148E2  -6.652419121396117E-1  -7.491431627134591E1  
 4.900000000000000E9    -7.969311419987526  -1.026949820035524E2  -2.263155423606670E1   4.885901689849359E1   1.943298446726841E1   1.364107049295233E2  -6.840201307530959E-1  -7.611248424974306E1  
 5.000000000000000E9    -7.865803611328917  -1.040431231316530E2  -2.252843833967413E1   4.809440273217069E1   1.935348154334529E1   1.357021574898640E2  -7.143069676446160E-1  -7.721549840064918E1  
 5.100000000000000E9    -7.815670774385731  -1.047425977508327E2  -2.243175634569171E1   4.741665747012115E1   1.927542296902213E1   1.350587448296371E2  -7.353029242731174E-1  -7.839032947040273E1  
 5.200000000000000E9    -7.758470977113284  -1.062156179498124E2  -2.232462560315220E1   4.673339361497919E1   1.920639038406332E1   1.344507052642961E2  -7.461780206662551E-1  -7.946070945187169E1  
 5.300000000000000E9    -7.675670480238955  -1.074204880185704E2  -2.223765570101931E1   4.611204622328895E1   1.914196252333661E1   1.337463451120742E2  -7.673965950656715E-1  -8.069523599686033E1  
 5.400000000000000E9    -7.602310992811003  -1.084197588663228E2  -2.214405192452469E1   4.544540491968537E1   1.906732492713645E1   1.331874471661066E2  -7.854334002396760E-1  -8.169799182483709E1  
 5.500000000000000E9    -7.566655957053361  -1.095579131483010E2  -2.206778903546784E1   4.489028388750661E1   1.899605316929550E1   1.324795590571950E2  -7.956145044114543E-1  -8.285618935503321E1  
 5.600000000000000E9    -7.439711725548255  -1.099792424404293E2  -2.197419566950378E1   4.430396407285148E1   1.891651987097790E1   1.319158070674531E2  -8.300117228310966E-1  -8.391471997893549E1  
 5.700000000000000E9    -7.477423287094108  -1.113391218220993E2  -2.189502047667234E1   4.371253707240869E1   1.885178940363352E1   1.312801114980810E2  -8.320811496461044E-1  -8.497285946164033E1  
 5.800000000000000E9    -7.280979609406082  -1.119733733657412E2  -2.180540658022373E1   4.328784337963239E1   1.877547108401959E1   1.307132824971001E2  -8.611210471700493E-1  -8.598840181259240E1  
 5.900000000000000E9    -7.319291821783299  -1.126076167309039E2  -2.174182229994052E1   4.270399755847715E1   1.870458235200048E1   1.301248805878811E2  -8.748423626551998E-1  -8.698488047870725E1  
 6.000000000000000E9    -7.229733796298359  -1.138136953887055E2  -2.166069369612539E1   4.215066999134598E1   1.862794752316811E1   1.295498140007539E2  -8.954582242480789E-1  -8.797702310923371E1  
 6.100000000000000E9    -7.195754954640317  -1.144051411860344E2  -2.160093044812271E1   4.163159077802131E1   1.855686085334091E1   1.289708184128346E2  -9.008254238486834E-1  -8.899893047883931E1  
 6.200000000000000E9    -7.172174780660212  -1.152982276933691E2  -2.151667793088317E1   4.115182676430663E1   1.848956159898627E1   1.284270238202686E2  -9.152090672417944E-1  -8.989397509539900E1  
 6.300000000000000E9    -7.094867261733125  -1.164881348959315E2  -2.145483388279273E1   4.054989514737954E1   1.840298032888931E1   1.278729028676208E2  -9.303188874800594E-1  -9.094300779457963E1  
 6.400000000000000E9    -7.030140947614609  -1.168250600659121E2  -2.137678771272459E1   4.001935010476201E1   1.834502268428627E1   1.273741193400896E2  -9.501898245179552E-1  -9.191593520728848E1  
 6.500000000000000E9    -7.072477284875060  -1.181418270788003E2  -2.132236024718806E1   3.955294519348023E1   1.826994571350052E1   1.268119940611380E2  -9.579504188172033E-1  -9.292057798089552E1  
 6.600000000000000E9    -6.911477215606782  -1.189938303684477E2  -2.127655598013158E1   3.894609555732190E1   1.819930136675518E1   1.262336287061497E2  -9.708397764245296E-1  -9.381464256101826E1  
 6.700000000000000E9    -6.960163890862769  -1.195412672893117E2  -2.121856266547337E1   3.855071229569696E1   1.813662614079059E1   1.256807100603811E2  -9.927778503126981E-1  -9.483793079569809E1  
 6.800000000000000E9    -6.821490375620964  -1.207394527672495E2  -2.116978818507639E1   3.800737072078078E1   1.805463155006953E1   1.250620945808735E2  -1.003153736842253  -9.590329956124234E1  
 6.900000000000000E9    -6.795827555022932  -1.205934340341444E2  -2.109890675981907E1   3.756796017259669E1   1.797235740762597E1   1.246219835800234E2  -1.035060572890487  -9.673486890590993E1  
 7.000000000000000E9    -6.749166229632332  -1.221997384284557E2  -2.106558077755045E1   3.707286768157093E1   1.790143776022134E1   1.240754619791638E2  -1.033358366731297  -9.758888158549124E1  
 7.100000000000000E9    -6.719994294918434  -1.226069207020138E2  -2.100799835174945E1   3.663076896390195E1   1.782865713254252E1   1.235991884920757E2  -1.048956936399668  -9.840986651101535E1  
 7.200000000000000E9    -6.651514297249187  -1.235546987145712E2  -2.095399592612216E1   3.626435071716730E1   1.775643697422063E1   1.230812237919753E2  -1.063862453055861  -9.927494737814278E1  
 7.300000000000000E9    -6.652581246075966  -1.240465281630375E2  -2.091579230410262E1   3.577916393742996E1   1.768735076624138E1   1.225644128674547E2  -1.086189537192693  -1.001786767908571E2  
 7.400000000000000E9    -6.541465802585980  -1.248096900575036E2  -2.087639815796074E1   3.525001249883540E1   1.760192209934933E1   1.221081868213083E2  -1.108187750922211  -1.010710855389232E2  
 7.500000000000000E9    -6.563228558107245  -1.254968535457106E2  -2.083860103114390E1   3.482355711748176E1   1.755183199453448E1   1.216960773336337E2  -1.110453458257901  -1.018905126789511E2  
 7.600000000000000E9    -6.474889829786860  -1.263339399682094E2  -2.078401741540843E1   3.451424669958010E1   1.746435933495067E1   1.211164010206085E2  -1.119979806393789  -1.027302256310140E2  
 7.700000000000000E9    -6.421875330968842  -1.269368823165422E2  -2.074175927636853E1   3.409873231149224E1   1.738940473380325E1   1.207320488683824E2  -1.137439539738974  -1.035345443480014E2  
 7.800000000000000E9    -6.335400633366962  -1.274229429829336E2  -2.070335019963147E1   3.352748103380041E1   1.731994736824013E1   1.202151591000921E2  -1.157682030584842  -1.044244843859245E2  
 7.900000000000000E9    -6.383306321127887  -1.279025503805766E2  -2.067386311008281E1   3.330018439536385E1   1.724425368101234E1   1.197811818858793E2  -1.183431755816453  -1.052082390037674E2  
 8.000000000000000E9    -6.289506545343355  -1.284995920531614E2  -2.059034738301706E1   3.310470254304808E1   1.717286200538329E1   1.193995564422722E2  -1.190224189017889  -1.057829719864788E2  
 8.100000000000000E9    -6.369125094404758  -1.285102974191140E2  -2.056723347083991E1   3.219544472274504E1   1.712449818228564E1   1.192028477871593E2  -1.184780701119177  -1.065008246986381E2  
 8.200000000000000E9    -6.283787717424739  -1.299976273941309E2  -2.052320262794488E1   3.180895774298428E1   1.705634202477625E1   1.187107899610200E2  -1.205122782453035  -1.071763139273154E2  
 8.300000000000000E9    -6.258763252827698  -1.293083179843349E2  -2.049018013093582E1   3.148980541919613E1   1.699093518649725E1   1.183395175389203E2  -1.227422289707381  -1.079041038862742E2  
 8.400000000000000E9    -6.353798999898157  -1.303058369892694E2  -2.046025048611848E1   3.108808271194927E1   1.692331292032022E1   1.179077903148394E2  -1.232513674387564  -1.086296671255175E2  
 8.500000000000000E9    -6.237523901574063  -1.310084160501240E2  -2.040670695494127E1   3.072366569545520E1   1.685833218620142E1   1.175312415855570E2  -1.236701224991428  -1.093359105604277E2  
 8.600000000000000E9    -6.186848386566455  -1.306680719589362E2  -2.037933828263166E1   3.048678005409154E1   1.680021426076115E1   1.171730757370525E2  -1.243735028781702  -1.099178843614930E2  
 8.700000000000000E9    -6.194261137381266  -1.320937454022449E2  -2.034091063394948E1   3.006411738983656E1   1.673602631561701E1   1.166355309943646E2  -1.239162372322442  -1.107423776212581E2  
 8.800000000000000E9    -6.040367992387447  -1.323461893246724E2  -2.031645906606994E1   2.973670719945918E1   1.665483395629827E1   1.162533365085742E2  -1.279214223187194  -1.113524995459233E2  
 8.900000000000000E9    -6.220918646096155  -1.324131433013950E2  -2.027962802968307E1   2.942308974429686E1   1.660982312755637E1   1.158516989684333E2  -1.274174745017061  -1.120678621353348E2  
 9.000000000000000E9    -6.106827652544726  -1.343993535143562E2  -2.025370574028077E1   2.891224735527986E1   1.653740521211434E1   1.152805464919286E2  -1.273502191256905  -1.128403956634164E2  
 9.100000000000000E9    -6.114039020086801  -1.333871824674472E2  -2.021273676170388E1   2.861533377831775E1   1.648546909584344E1   1.148967748469138E2  -1.282587971297142  -1.135576097683959E2  
 9.200000000000000E9    -6.169825325620108  -1.358580620086532E2  -2.020763846415237E1   2.822427195952040E1   1.641039509562380E1   1.144066876881064E2  -1.296690956330546  -1.142655646676351E2  
 9.300000000000000E9    -5.927690040562706  -1.356017793551865E2  -2.018436588537835E1   2.779554311814315E1   1.634039234605116E1   1.139338491774798E2  -1.322440607927866  -1.149752048358528E2  
 9.400000000000000E9    -6.130827041629650  -1.354791305104414E2  -2.014663555676567E1   2.756079709928229E1   1.628410236895963E1   1.136283952657659E2  -1.332616392221607  -1.156313649998920E2  
 9.500000000000000E9    -6.016446176283351  -1.374205890849889E2  -2.013029590054439E1   2.716698904603826E1   1.621343664262624E1   1.132224667762606E2  -1.321853788321953  -1.164370952467953E2  
 9.600000000000000E9    -5.946865576897402  -1.366686520494643E2  -2.012208889494336E1   2.672048471360390E1   1.613944421677861E1   1.127523636184772E2  -1.326486512834390  -1.170955482984577E2  
 9.700000000000000E9    -6.048417927416584  -1.377688061902843E2  -2.008831377410574E1   2.644938830669129E1   1.607103972129217E1   1.124623874963529E2  -1.339792334773081  -1.176995315371204E2  
 9.800000000000000E9    -5.875233878398677  -1.385435446027661E2  -2.008796546931629E1   2.610508991639443E1   1.599207315913354E1   1.120788921819469E2  -1.351768386952196  -1.183892452198753E2  
