#  HZ   S   DB   R     50.00 
! Rohde & Schwarz ZVA50 4Ports - Version 4.11 - 1145.1110k52 SN: 100136
! Date: 2022-09-20 22:21:32
! Measurements: S11 S21 S12 S22 
! 
 1.000000000000000E8    -2.112765094359708E1   1.328884218800246E2  -5.431902700900626E1   4.431940817565572E1   2.053541518481616E1  -1.783252422366726E2  -1.448726962773744E-1  -1.721162935703485  
 2.000000000000000E8    -2.035315664351779E1   1.014843994960687E2  -5.049681446655354E1   6.770885313291001E1   2.079336066961085E1  -1.780642159448172E2  -1.080255610030346E-1  -3.400932579038683  
 3.000000000000000E8    -1.925665647681839E1   7.595879023834881E1  -4.603647332223718E1   7.500072369748176E1   2.101361536039899E1  -1.785017743353912E2  -9.115371469949153E-2  -5.141548419606222  
 4.000000000000000E8    -1.828628498563467E1   5.767510301971255E1  -4.345374696960786E1   7.824366593617150E1   2.121591415838009E1  -1.796063003990215E2  -8.135524126128500E-2  -7.037862400390671  
 5.000000000000000E8    -1.754063763682974E1   4.243883864727968E1  -4.138614771382804E1   8.196906480647917E1   2.133854633316559E1   1.792380714201658E2  -5.963451406953582E-2  -8.773494168792910  
 6.000000000000000E8    -1.695662660730515E1   2.972062633307111E1  -3.960390122569403E1   8.182257831951874E1   2.144877161023725E1   1.778592880916636E2  -6.574481198052205E-2  -1.067108948290768E1  
 7.000000000000000E8    -1.652409574057226E1   1.927554812851813E1  -3.823376797050111E1   8.208704394929822E1   2.148683905619567E1   1.764452595461295E2  -7.016402077556107E-2  -1.246222050981992E1  
 8.000000000000000E8    -1.609975557540420E1   9.912615398320854  -3.696690645117547E1   8.145399946425965E1   2.152765862850875E1   1.753018763595285E2  -7.514556072440325E-2  -1.422566036620511E1  
 9.000000000000000E8    -1.572316222425407E1   1.745795033585926  -3.585280146923265E1   8.062822300249455E1   2.155135183062430E1   1.740053779768581E2  -8.101456497598342E-2  -1.604982097440740E1  
 1.000000000000000E9    -1.539823473621339E1  -5.245642267869443  -3.494580088006853E1   7.990430192537373E1   2.158889813750051E1   1.727319304533185E2  -8.008178966796387E-2  -1.783081171958741E1  
 1.100000000000000E9    -1.505542373275931E1  -1.176801087896686E1  -3.406734125298941E1   7.927268793875462E1   2.158079769949710E1   1.714865285071562E2  -8.750137618916294E-2  -1.967319959977349E1  
 1.200000000000000E9    -1.472025024115053E1  -1.761222489306235E1  -3.328160766229033E1   7.822241837634456E1   2.158399975767324E1   1.702635246398368E2  -9.614296537890757E-2  -2.140713491737355E1  
 1.300000000000000E9    -1.439436563854761E1  -2.297796081626283E1  -3.258851789984418E1   7.711514252554969E1   2.157090977117023E1   1.690987083734489E2  -1.058875961013327E-1  -2.313312819860646E1  
 1.400000000000000E9    -1.418505293333939E1  -2.776221358280621E1  -3.196469156051691E1   7.665914944130616E1   2.156711820270053E1   1.679450716785462E2  -1.141978135857395E-1  -2.488904068112117E1  
 1.500000000000000E9    -1.388564514331444E1  -3.264745637006622E1  -3.139605567112800E1   7.557475946322457E1   2.155465671979776E1   1.667280738607760E2  -1.168075658226436E-1  -2.666433418559303E1  
 1.600000000000000E9    -1.361432076487751E1  -3.669825057072504E1  -3.085364852877978E1   7.457247345878099E1   2.152797173937145E1   1.656099887291451E2  -1.229839112813818E-1  -2.835753799987351E1  
 1.700000000000000E9    -1.331189971206079E1  -4.094160852319557E1  -3.032494007425023E1   7.363715287158324E1   2.150493940318003E1   1.644348744824088E2  -1.314411915862692E-1  -3.014170045046600E1  
 1.800000000000000E9    -1.304160182790295E1  -4.446484905740929E1  -2.985291495533255E1   7.288238904348198E1   2.144922646879953E1   1.633444994286068E2  -1.614150371427973E-1  -3.175505164609441E1  
 1.900000000000000E9    -1.281074131226029E1  -4.824725811877010E1  -2.941249050300836E1   7.186916178492579E1   2.142127224040519E1   1.622355109886852E2  -1.675430897897211E-1  -3.353967546512317E1  
 2.000000000000000E9    -1.258636153471499E1  -5.135088995337402E1  -2.902123813940462E1   7.101800719588418E1   2.139057061203577E1   1.612182438415227E2  -1.735085086771031E-1  -3.517714435149353E1  
 2.100000000000000E9    -1.229359670787002E1  -5.462388040578113E1  -2.861384380700132E1   7.014197383882774E1   2.133851285349587E1   1.601210610773880E2  -1.965222732871034E-1  -3.689523723899157E1  
 2.200000000000000E9    -1.208005633474309E1  -5.727193705491659E1  -2.825253205126897E1   6.913435633434430E1   2.129339073871199E1   1.591814053160749E2  -2.093685434186823E-1  -3.850015999761604E1  
 2.300000000000000E9    -1.184780092483267E1  -6.022908616052764E1  -2.790249788315926E1   6.831121656440745E1   2.124776483475145E1   1.581331412746640E2  -2.250146917550884E-1  -4.017264367583906E1  
 2.400000000000000E9    -1.168662005930701E1  -6.266300634910625E1  -2.756911100748235E1   6.747422256566318E1   2.119409589769792E1   1.572573817434323E2  -2.325128681830282E-1  -4.166683781439928E1  
 2.500000000000000E9    -1.143294598833111E1  -6.570159971892655E1  -2.724059058556854E1   6.637959033983883E1   2.114914760637781E1   1.561669025575551E2  -2.531482991487454E-1  -4.338463650790062E1  
 2.600000000000000E9    -1.126435944829985E1  -6.764963312998900E1  -2.696060508286853E1   6.542599200991275E1   2.108904279361952E1   1.552392407981493E2  -2.847007347614892E-1  -4.488404974003462E1  
 2.700000000000000E9    -1.111941207683716E1  -7.040827687205461E1  -2.670255617039789E1   6.464256168186869E1   2.104210431134468E1   1.542974450203340E2  -3.025415733511347E-1  -4.647454573266455E1  
 2.800000000000000E9    -1.091111143501485E1  -7.238684483113138E1  -2.643417837776381E1   6.355933521286200E1   2.098904595004431E1   1.534073602336183E2  -3.101047936118533E-1  -4.803063780063454E1  
 2.900000000000000E9    -1.076458772685251E1  -7.441238620063945E1  -2.616989470321175E1   6.287681407463825E1   2.092540727070975E1   1.524631664620153E2  -3.373419432101766E-1  -4.948033707935961E1  
 3.000000000000000E9    -1.059847059320491E1  -7.640225427009503E1  -2.593250324562940E1   6.200955634318037E1   2.086745333628176E1   1.515679041806194E2  -3.592557540503041E-1  -5.098241769478025E1  
 3.100000000000000E9    -1.041310541523671E1  -7.837461969508878E1  -2.569271099222190E1   6.119874428263189E1   2.081029226637454E1   1.506743953541487E2  -3.800454514685184E-1  -5.243984160567891E1  
 3.200000000000000E9    -1.031240590441950E1  -8.005072386810997E1  -2.549439766338525E1   6.048423372474598E1   2.075551411557113E1   1.498248909973358E2  -4.004816983895917E-1  -5.394584787412056E1  
 3.300000000000000E9    -1.018554237788417E1  -8.223301720815225E1  -2.528827771778274E1   5.944921036957444E1   2.070541937477001E1   1.489652808812690E2  -3.968753203846371E-1  -5.535996213760600E1  
 3.400000000000000E9    -1.001031865711855E1  -8.420340703214311E1  -2.508077653919231E1   5.873056403923746E1   2.064718210522048E1   1.481112949917037E2  -4.210850640387530E-1  -5.685192097253671E1  
 3.500000000000000E9    -9.857161255052036  -8.589195978955328E1  -2.487993824582259E1   5.798122734849022E1   2.057609417650259E1   1.472002434588747E2  -4.382196027713051E-1  -5.833848119686616E1  
 3.600000000000000E9    -9.682930302648481  -8.760700056434257E1  -2.469265108524880E1   5.725165977831260E1   2.052347025423730E1   1.463062440633741E2  -4.536051903670211E-1  -5.981613660783929E1  
 3.700000000000000E9    -9.582341375266198  -8.927741760954281E1  -2.453129309502624E1   5.636798425180874E1   2.045097360634032E1   1.454979378033504E2  -4.802401825302819E-1  -6.123270765212320E1  
 3.800000000000000E9    -9.437431010303092  -9.122861749549087E1  -2.436319805792453E1   5.555969461670529E1   2.039227785941790E1   1.446574411317202E2  -4.901363300495626E-1  -6.270767900500382E1  
 3.900000000000000E9    -9.297314895292889  -9.238110901205907E1  -2.419473378154635E1   5.507972799491688E1   2.033465910582558E1   1.438522041582057E2  -4.977638343991568E-1  -6.402845977501842E1  
 4.000000000000000E9    -9.149364833806335  -9.393944417731800E1  -2.403028303575595E1   5.432564642955221E1   2.026674831418652E1   1.430249224263936E2  -5.245155789523119E-1  -6.534132965497341E1  
 4.100000000000000E9    -9.057398385033951  -9.509432329762596E1  -2.391429491974114E1   5.360427413351569E1   2.018972617616349E1   1.423167799694327E2  -5.476009847518698E-1  -6.672986683781576E1  
 4.200000000000000E9    -8.927635568586936  -9.663729077781798E1  -2.376560509911757E1   5.292113507016489E1   2.011496994989100E1   1.414794587352729E2  -5.599971038901683E-1  -6.810086743944795E1  
 4.300000000000000E9    -8.850312178216521  -9.790522135123118E1  -2.363450163475664E1   5.222602440232977E1   2.004711293400505E1   1.407683291097835E2  -5.772671308052881E-1  -6.930375408878108E1  
 4.400000000000000E9    -8.698961232896966  -9.964325488693025E1  -2.351854850553641E1   5.159284462782284E1   1.997385231448204E1   1.399804033222359E2  -5.973666213121192E-1  -7.067144899647616E1  
 4.500000000000000E9    -8.592884472139742  -1.006606698176703E2  -2.338737997040341E1   5.087493063249870E1   1.990208639231638E1   1.392439459116367E2  -6.249652837856399E-1  -7.186659741228930E1  
 4.600000000000000E9    -8.484696110267457  -1.019476368807435E2  -2.325514338523822E1   5.017432494239417E1   1.983300602543499E1   1.385059010188204E2  -6.443254684396420E-1  -7.320245315976185E1  
 4.700000000000000E9    -8.393320128719115  -1.032182156697540E2  -2.315864861561325E1   4.953830461738275E1   1.976385137845992E1   1.378199142713821E2  -6.479735820160156E-1  -7.436796359485899E1  
 4.800000000000000E9    -8.243583828341142  -1.041916129502946E2  -2.304277399949604E1   4.905061891909171E1   1.968829940596379E1   1.370955534224668E2  -6.752612125331468E-1  -7.557151219429606E1  
 4.900000000000000E9    -8.190139904980130  -1.050606453225320E2  -2.294287944181381E1   4.845870899436186E1   1.961481919739567E1   1.363978378697410E2  -6.984347731364371E-1  -7.672369646025199E1  
 5.000000000000000E9    -8.094366078832405  -1.062926862919855E2  -2.284517178081181E1   4.782747002808051E1   1.954830107205681E1   1.356681672222233E2  -7.138328570065292E-1  -7.790727269922333E1  
 5.100000000000000E9    -8.022976454652474  -1.069976701883421E2  -2.273357840128967E1   4.711867652155478E1   1.946634991438440E1   1.350612036433579E2  -7.369711791543122E-1  -7.905537600162961E1  
 5.200000000000000E9    -7.960513359276432  -1.083269865339243E2  -2.263367071103409E1   4.638068754084643E1   1.938865297875213E1   1.343821373216168E2  -7.451717452813115E-1  -8.018389907797057E1  
 5.300000000000000E9    -7.866813750083113  -1.095738220351779E2  -2.254731828595568E1   4.575790820635345E1   1.932261302752902E1   1.337219518368496E2  -7.730649478228822E-1  -8.128453046948198E1  
 5.400000000000000E9    -7.810893575977584  -1.103366995026295E2  -2.245440534718491E1   4.526147609993543E1   1.924943861138097E1   1.330801886120499E2  -7.804915033386741E-1  -8.239604197787138E1  
 5.500000000000000E9    -7.736452172064777  -1.117128549363943E2  -2.235701666556321E1   4.451935890675646E1   1.916708588932277E1   1.324679463616646E2  -8.161779722316612E-1  -8.349277374790552E1  
 5.600000000000000E9    -7.618585217755781  -1.120370359226714E2  -2.227500919470381E1   4.401164290664888E1   1.910127768970637E1   1.318786232784864E2  -8.330159947934210E-1  -8.456773203001501E1  
 5.700000000000000E9    -7.641600204658699  -1.133246500764311E2  -2.220470656713181E1   4.353986951369804E1   1.902618334113512E1   1.312672271745843E2  -8.332480416939899E-1  -8.563129342436106E1  
 5.800000000000000E9    -7.448969860892650  -1.139839308000289E2  -2.212613170107573E1   4.293290194168086E1   1.894743856021324E1   1.307114090780341E2  -8.671729547373043E-1  -8.659841251790652E1  
 5.900000000000000E9    -7.472780243919657  -1.145595434677296E2  -2.204121881472640E1   4.246099294881285E1   1.887508947792222E1   1.301031646170070E2  -8.813123994067793E-1  -8.763367534107940E1  
 6.000000000000000E9    -7.386374125647060  -1.158575069945336E2  -2.197918001275394E1   4.182201190003384E1   1.880898710563806E1   1.294900258136646E2  -8.966982334783409E-1  -8.868467508361692E1  
 6.100000000000000E9    -7.346173113698834  -1.164782270972336E2  -2.191108067889645E1   4.126915443920971E1   1.873606096392677E1   1.289074418665875E2  -8.981528343846168E-1  -8.971569048157626E1  
 6.200000000000000E9    -7.320917211839211  -1.173788521191176E2  -2.183192421717955E1   4.083577003966200E1   1.866198062290370E1   1.283652346352276E2  -9.176631611992352E-1  -9.061308432232887E1  
 6.300000000000000E9    -7.240437503191941  -1.185836489385479E2  -2.177308069347070E1   4.021126235011339E1   1.858259231547566E1   1.278193689462626E2  -9.336889722231367E-1  -9.169354911260103E1  
 6.400000000000000E9    -7.168610847573054  -1.188055598139299E2  -2.168810331094576E1   3.967751698326940E1   1.851464524609783E1   1.273203202425950E2  -9.548340841187197E-1  -9.258866522028163E1  
 6.500000000000000E9    -7.213735125998944  -1.201157138548357E2  -2.164195669520929E1   3.916687766115111E1   1.844718828290443E1   1.267311039382723E2  -9.590087855810333E-1  -9.366427843922836E1  
 6.600000000000000E9    -7.033266326189541  -1.208538426019202E2  -2.158829755811276E1   3.873214649756594E1   1.837159864635926E1   1.261821888677061E2  -9.726485967817174E-1  -9.452502722276158E1  
 6.700000000000000E9    -7.094774349470941  -1.215129905639626E2  -2.151321815217812E1   3.826361609064718E1   1.829924694646668E1   1.256430029822274E2  -9.947070816825422E-1  -9.551958560165369E1  
 6.800000000000000E9    -6.937301145131718  -1.226359259794112E2  -2.148477394993047E1   3.768796357610790E1   1.821939402444013E1   1.250486596199070E2  -1.005249178107616  -9.655109874304026E1  
 6.900000000000000E9    -6.917364821095194  -1.225443766588970E2  -2.142183042931828E1   3.722624251392250E1   1.814742262155578E1   1.245233650506548E2  -1.034062734325700  -9.745817967675905E1  
 7.000000000000000E9    -6.854486864170273  -1.240521124745366E2  -2.137590343670027E1   3.678399882072316E1   1.807330285581573E1   1.240192276054134E2  -1.033705605818567  -9.830347983819094E1  
 7.100000000000000E9    -6.821472716124738  -1.244973615928213E2  -2.132646034991482E1   3.628785602621071E1   1.800285315623811E1   1.235372382091053E2  -1.042413208110006  -9.908446388658548E1  
 7.200000000000000E9    -6.774374625048181  -1.253585257848272E2  -2.127674651292396E1   3.588575778845017E1   1.792902382430195E1   1.230627357741560E2  -1.062436973937841  -9.994983522691302E1  
 7.300000000000000E9    -6.733641532726756  -1.259547050058111E2  -2.122453717495182E1   3.550825986772692E1   1.785716839120489E1   1.225434793836045E2  -1.085450669617076  -1.008525417243511E2  
 7.400000000000000E9    -6.654850369758687  -1.265945311730432E2  -2.119173178910473E1   3.494593623920715E1   1.778023536149473E1   1.221016310114165E2  -1.103551607965690  -1.017474187242537E2  
 7.500000000000000E9    -6.660633743657320  -1.272910708646377E2  -2.115890651100958E1   3.456311922260728E1   1.771386195584770E1   1.216659143241325E2  -1.114690155996232  -1.025432966304126E2  
 7.600000000000000E9    -6.576153760203494  -1.280152206955063E2  -2.110762988587451E1   3.421460429366500E1   1.763154879517261E1   1.210713877819719E2  -1.122505469402052  -1.034170249109616E2  
 7.700000000000000E9    -6.517753320929860  -1.286657710217727E2  -2.106208150914701E1   3.378218152404745E1   1.756207570873619E1   1.206769963181969E2  -1.135439116339392  -1.042135100444426E2  
 7.800000000000000E9    -6.423106356544965  -1.291435458800230E2  -2.101571890213395E1   3.331082265413978E1   1.749043305034062E1   1.202114377134536E2  -1.156138937617524  -1.051011264300654E2  
 7.900000000000000E9    -6.477576523093463  -1.296038015384378E2  -2.100501767259666E1   3.295990765640769E1   1.742005935788443E1   1.197477979691509E2  -1.172103633153001  -1.058770966675263E2  
 8.000000000000000E9    -6.383015184967025  -1.301486358788005E2  -2.091809512447744E1   3.289443174304381E1   1.734686729314121E1   1.193191514199857E2  -1.178651220333804  -1.065153458404244E2  
 8.100000000000000E9    -6.474096338397805  -1.301440399539422E2  -2.088399357912858E1   3.198044206742933E1   1.728637384166774E1   1.191222391585189E2  -1.181757854878206  -1.071790198842934E2  
 8.200000000000000E9    -6.374721180603221  -1.315091478268460E2  -2.085562704619523E1   3.157103681688692E1   1.722467288698530E1   1.186691639096844E2  -1.193511474018715  -1.078625946338152E2  
 8.300000000000000E9    -6.341753381688635  -1.308589798340078E2  -2.081574516915514E1   3.125413078279226E1   1.715409393634230E1   1.182660943401128E2  -1.223793155283153  -1.085841704452212E2  
 8.400000000000000E9    -6.438362828984258  -1.319486710334443E2  -2.078191217142496E1   3.088961098925746E1   1.708719734027303E1   1.178655622305445E2  -1.226359220608671  -1.093182879436621E2  
 8.500000000000000E9    -6.311999413089741  -1.324959461049628E2  -2.073452102569889E1   3.050142970479687E1   1.702256786050039E1   1.174702490185651E2  -1.231647906136838  -1.100450364346707E2  
 8.600000000000000E9    -6.267455989749478  -1.322861700805462E2  -2.070388354067046E1   3.021801828625153E1   1.696438949482558E1   1.171406867659845E2  -1.236356656660500  -1.105846351465436E2  
 8.700000000000000E9    -6.285981227955145  -1.337280468931935E2  -2.066162369529965E1   2.985212394027139E1   1.689464772161906E1   1.165975481669457E2  -1.233680206490369  -1.114158080006775E2  
 8.800000000000000E9    -6.122612162579605  -1.338770308416858E2  -2.065468771512014E1   2.947627263164332E1   1.682314162220531E1   1.162124752072752E2  -1.265911331528802  -1.120720005936791E2  
 8.900000000000000E9    -6.285991033997888  -1.339301896159601E2  -2.060289680303658E1   2.923200395275308E1   1.677284376542803E1   1.157982147115288E2  -1.267112026303085  -1.127637865640601E2  
 9.000000000000000E9    -6.180080667871966  -1.360028230661017E2  -2.059236007166981E1   2.871534223230154E1   1.669291201916514E1   1.152287624761433E2  -1.271027025745376  -1.135536287022795E2  
 9.100000000000000E9    -6.179438479826444  -1.349722572038610E2  -2.053905477148063E1   2.839062764189271E1   1.665338530668852E1   1.148284722552273E2  -1.272417458305300  -1.142732663600226E2  
 9.200000000000000E9    -6.227428808472372  -1.373920289213649E2  -2.054114670573560E1   2.797036709327105E1   1.657065966073131E1   1.143448762536515E2  -1.277688238646753  -1.149629933703518E2  
 9.300000000000000E9    -5.987448727900397  -1.371214005544437E2  -2.051474013757304E1   2.755162107919448E1   1.650784263285340E1   1.139011661169931E2  -1.315480691936858  -1.156586229399234E2  
 9.400000000000000E9    -6.193099025752805  -1.371022838619672E2  -2.048256145606497E1   2.739456622697914E1   1.645295132176292E1   1.135881481585505E2  -1.313797999008934  -1.162779208459734E2  
 9.500000000000000E9    -6.080440603894051  -1.388815931154785E2  -2.047671670393866E1   2.691886187496934E1   1.637288293827253E1   1.130638769010146E2  -1.313613218368827  -1.171655720080061E2  
 9.600000000000000E9    -6.015590103014945  -1.381972029462935E2  -2.045037287718747E1   2.661074650244544E1   1.630201335554980E1   1.127369856076137E2  -1.318440747618263  -1.177589771572089E2  
 9.700000000000000E9    -6.102526246677149  -1.392372487680955E2  -2.043129630920847E1   2.626017998451201E1   1.623222280628913E1   1.124162906734062E2  -1.333782883061538  -1.183924573611719E2  
 9.800000000000000E9    -5.932212795750500  -1.400626851760442E2  -2.042179440325348E1   2.594544489610642E1   1.615216402467299E1   1.120288559866135E2  -1.338008305900623  -1.190818931434431E2  
