#  HZ   S   DB   R     50.00 
! Rohde & Schwarz ZVA50 4Ports - Version 4.11 - 1145.1110k52 SN: 100136
! Date: 2022-09-20 22:10:59
! Measurements: S11 S21 S12 S22 
! 
 1.000000000000000E8    -1.797437923370470E1  -1.766032614880240E2  -5.402053664138291E1   6.552224671217294E1   1.200131899205069E1   1.791340902841758E2   6.563150060859523E-3  -1.396197641091276  
 2.000000000000000E8    -1.790098979102367E1  -1.743502517913763E2  -4.703719867867430E1   9.005316474844427E1   1.197083019990328E1   1.780502442479367E2  -1.280766412722781E-2  -2.704743274197927  
 3.000000000000000E8    -1.794722695490385E1  -1.715158849821065E2  -4.331211515093842E1   8.613864614545317E1   1.198805083126862E1   1.771799181883606E2  -1.558327011646527E-2  -4.017615811076899  
 4.000000000000000E8    -1.799344839328236E1  -1.689983797539671E2  -4.093423319886578E1   8.756102836115832E1   1.193776404901119E1   1.763275867927963E2  -1.296405752257895E-2  -5.333936990159287  
 5.000000000000000E8    -1.785642909638017E1  -1.663094018257181E2  -3.903362631706708E1   8.573069557977844E1   1.196676479941721E1   1.756254240355976E2  -5.199603475712142E-3  -6.673880108940348  
 6.000000000000000E8    -1.771512111577980E1  -1.640739743784175E2  -3.741904093869827E1   8.431905532927941E1   1.191075847431880E1   1.747841903999883E2  -3.338867190910469E-3  -8.081053592154497  
 7.000000000000000E8    -1.731278431077810E1  -1.619630520395773E2  -3.608014885620160E1   8.368129050827953E1   1.187528348766405E1   1.742534522944817E2  -2.134138871641207E-2  -9.342323351212970  
 8.000000000000000E8    -1.699467951780742E1  -1.598139305829428E2  -3.493908998922078E1   8.334971166090354E1   1.192144642177132E1   1.733643819057797E2  -1.996723576876018E-2  -1.068746948967944E1  
 9.000000000000000E8    -1.679732394126726E1  -1.570890822295054E2  -3.390971909101084E1   8.256462438110943E1   1.190075236746718E1   1.723742586231672E2  -3.122039398245885E-2  -1.200283215307138E1  
 1.000000000000000E9    -1.660534166750587E1  -1.554348210566118E2  -3.302081569099811E1   8.159532753707921E1   1.191328977911901E1   1.715400423227139E2  -3.354753823733533E-2  -1.329462310201980E1  
 1.100000000000000E9    -1.639488484130915E1  -1.538924039520819E2  -3.222474368127806E1   8.087138042115817E1   1.191637194704240E1   1.707598163083855E2  -4.065516492965969E-2  -1.463272428346461E1  
 1.200000000000000E9    -1.610254474000643E1  -1.528755176269804E2  -3.147916004291958E1   8.012468351969235E1   1.188271433934018E1   1.698109714440536E2  -3.639512461944782E-2  -1.597721771904779E1  
 1.300000000000000E9    -1.584335306594474E1  -1.513667624449462E2  -3.080175258327147E1   7.943049194098282E1   1.186947991946893E1   1.690696709607368E2  -5.825086416870140E-2  -1.725261454710778E1  
 1.400000000000000E9    -1.559002759292142E1  -1.502727778185090E2  -3.017612311765635E1   7.852751126476764E1   1.187224964730717E1   1.680508037183994E2  -5.771231758163362E-2  -1.857144890726396E1  
 1.500000000000000E9    -1.529003602082318E1  -1.483697539704613E2  -2.961548186894478E1   7.770061908105889E1   1.180111359783100E1   1.671561652991078E2  -6.368626129655726E-2  -1.982302280100237E1  
 1.600000000000000E9    -1.507592019484116E1  -1.475139895772181E2  -2.908953180850186E1   7.697508945772304E1   1.179458838636906E1   1.663372718629297E2  -6.619984841324123E-2  -2.112570267503103E1  
 1.700000000000000E9    -1.476256572684730E1  -1.455359089373721E2  -2.857780952885262E1   7.619072528552815E1   1.168159646196078E1   1.656029168773689E2  -7.546229860835031E-2  -2.235374503829482E1  
 1.800000000000000E9    -1.455984145267724E1  -1.452417396469815E2  -2.810846969761827E1   7.546644597163427E1   1.171714609266352E1   1.648996691401023E2  -7.522451811825748E-2  -2.368789609721620E1  
 1.900000000000000E9    -1.428633716241761E1  -1.440077750266102E2  -2.765379298150867E1   7.445666815569828E1   1.166710352138744E1   1.642746381241203E2  -8.718170432510025E-2  -2.491536447463546E1  
 2.000000000000000E9    -1.407853952742315E1  -1.442062193394408E2  -2.728273401736867E1   7.382047640998660E1   1.165108549749876E1   1.635413209689374E2  -9.668181140844659E-2  -2.615418680586720E1  
 2.100000000000000E9    -1.373253703668316E1  -1.429165779675960E2  -2.686363725291398E1   7.282219267980301E1   1.158812623512318E1   1.626808794106902E2  -1.027849026296941E-1  -2.743790374278285E1  
 2.200000000000000E9    -1.352225206404392E1  -1.428728271372575E2  -2.651587715171517E1   7.223226921919796E1   1.163028255232756E1   1.617651489558758E2  -1.189482224840557E-1  -2.878608869502682E1  
 2.300000000000000E9    -1.327859126713431E1  -1.419695647559796E2  -2.614525464023723E1   7.151857602526243E1   1.158563640509796E1   1.609338711187406E2  -1.281309639139427E-1  -3.000841872297692E1  
 2.400000000000000E9    -1.311693697906432E1  -1.421478893793036E2  -2.580825138373991E1   7.078011687793099E1   1.159356857463360E1   1.600106903838309E2  -1.475093413596979E-1  -3.136880443445809E1  
 2.500000000000000E9    -1.284584507275428E1  -1.414167968900615E2  -2.548266756534488E1   6.992905784728001E1   1.150463570117548E1   1.592363448293779E2  -1.589189875169972E-1  -3.243222396559996E1  
 2.600000000000000E9    -1.273892702540891E1  -1.414307909500472E2  -2.517628405334264E1   6.924669430079796E1   1.149776825248763E1   1.585307622358817E2  -1.654147149007971E-1  -3.367517834373360E1  
 2.700000000000000E9    -1.247322724175382E1  -1.411403627731901E2  -2.488082531492435E1   6.846341291754547E1   1.146342186270782E1   1.575719343958261E2  -1.844367682343627E-1  -3.494602069639054E1  
 2.800000000000000E9    -1.230164271364457E1  -1.407853960698930E2  -2.460616954346339E1   6.776352240719866E1   1.142970010252719E1   1.568874733409139E2  -1.914741435560327E-1  -3.612553571206577E1  
 2.900000000000000E9    -1.216409461150645E1  -1.410762142159795E2  -2.435129701656181E1   6.707348110102620E1   1.140079204150679E1   1.560818281589831E2  -2.039417117588548E-1  -3.735268652737457E1  
 3.000000000000000E9    -1.201389997227764E1  -1.407989380166965E2  -2.408243369638339E1   6.637166099212345E1   1.137986768078288E1   1.553113498433152E2  -2.154070035864890E-1  -3.861107431579977E1  
 3.100000000000000E9    -1.183758374432624E1  -1.406643413263290E2  -2.382684324011302E1   6.570176251082671E1   1.135818756027203E1   1.546928802915499E2  -2.106653687381223E-1  -3.978693833916545E1  
 3.200000000000000E9    -1.174632024788447E1  -1.405905179557069E2  -2.357582633391464E1   6.494171825654357E1   1.135882154226686E1   1.539120006473539E2  -2.390228215702952E-1  -4.115766526157707E1  
 3.300000000000000E9    -1.158723820303954E1  -1.409507783911068E2  -2.334773430035441E1   6.427438732572993E1   1.133766995055359E1   1.532211136825478E2  -2.476194034910497E-1  -4.225373379599062E1  
 3.400000000000000E9    -1.142589905166733E1  -1.407790527800335E2  -2.310743203510854E1   6.355205923822861E1   1.131458555959360E1   1.525265468223597E2  -2.684059131129632E-1  -4.355132667223429E1  
 3.500000000000000E9    -1.125688036279782E1  -1.405975249820316E2  -2.288275151399965E1   6.281661980932565E1   1.126991190270926E1   1.516362550372188E2  -2.913419869216637E-1  -4.473323318520005E1  
 3.600000000000000E9    -1.107690547936664E1  -1.404686039563883E2  -2.265177282249653E1   6.217814764264130E1   1.121064640288238E1   1.508878490932831E2  -3.089657069686317E-1  -4.578280530323999E1  
 3.700000000000000E9    -1.092230522261789E1  -1.405427687464132E2  -2.246833335882420E1   6.146656831586628E1   1.117140673486627E1   1.501096309813116E2  -3.230893701669957E-1  -4.703843821453084E1  
 3.800000000000000E9    -1.076797875418281E1  -1.405548602954092E2  -2.225439403968861E1   6.083651381387432E1   1.111653563083014E1   1.492294714989489E2  -3.460444442750770E-1  -4.812419469772460E1  
 3.900000000000000E9    -1.061090027651726E1  -1.401066464805815E2  -2.205325360974868E1   6.016075606571691E1   1.105464384528819E1   1.486619125657444E2  -3.552103596751031E-1  -4.914142556938547E1  
 4.000000000000000E9    -1.046883853560078E1  -1.401999051160981E2  -2.188042977986682E1   5.955304942726622E1   1.100277399179949E1   1.480198337988815E2  -3.643649440954846E-1  -5.029725662258360E1  
 4.100000000000000E9    -1.020647445441031E1  -1.397640614236445E2  -2.173211083195400E1   5.860312811878222E1   1.092074218107340E1   1.472899622929450E2  -3.689903230588713E-1  -5.143384796265600E1  
 4.200000000000000E9    -1.005567152311994E1  -1.406078121739533E2  -2.160952230173696E1   5.799287942639801E1   1.086814804018908E1   1.466961922778706E2  -3.835335300862617E-1  -5.254407599134347E1  
 4.300000000000000E9    -1.004964187171505E1  -1.404235765667208E2  -2.143446825584039E1   5.748310631225392E1   1.085368429824171E1   1.461471029454855E2  -3.929065800057918E-1  -5.356680928848035E1  
 4.400000000000000E9    -9.729630561320985  -1.409675389607743E2  -2.131094764585692E1   5.657586715141702E1   1.077507003740038E1   1.453412462596358E2  -4.123001865043924E-1  -5.461535608108699E1  
 4.500000000000000E9    -9.677881746951309  -1.409450099741328E2  -2.115006595168472E1   5.608096986635764E1   1.075025108281702E1   1.445961556797939E2  -4.345222514794965E-1  -5.578609218366049E1  
 4.600000000000000E9    -9.494010238961423  -1.415218198290015E2  -2.104322783879773E1   5.528654180725207E1   1.067624245669383E1   1.439572701505284E2  -4.554584742924117E-1  -5.681251722604523E1  
 4.700000000000000E9    -9.461813581098520  -1.418972880956817E2  -2.090737825850185E1   5.503944282612332E1   1.066724328058639E1   1.433144572454589E2  -4.639806043423755E-1  -5.793150908968879E1  
 4.800000000000000E9    -9.228283694197394  -1.420655581104687E2  -2.079754753322417E1   5.427719792935642E1   1.059377460236627E1   1.425581953572328E2  -4.781077986455702E-1  -5.888434047193170E1  
 4.900000000000000E9    -9.203748605948711  -1.425095462714037E2  -2.068209065384846E1   5.385759130660622E1   1.054237417385485E1   1.420894568040899E2  -4.776633765090143E-1  -5.990489137295306E1  
 5.000000000000000E9    -9.179713856180420  -1.427664838118781E2  -2.055263387792347E1   5.338645709488497E1   1.052072773248350E1   1.416109483015612E2  -4.927645736427169E-1  -6.092593034927827E1  
 5.100000000000000E9    -9.116403161771371  -1.424421908029425E2  -2.040639261607714E1   5.248669283770043E1   1.050808499983622E1   1.408372217495731E2  -5.205794122941764E-1  -6.210605979309158E1  
 5.200000000000000E9    -8.919122748889327  -1.433769782451861E2  -2.033656636032017E1   5.194256942953339E1   1.043297518677338E1   1.400458159107281E2  -5.310368748964677E-1  -6.313297679336746E1  
 5.300000000000000E9    -8.859034807252227  -1.436668634020741E2  -2.020331651534039E1   5.153695785420855E1   1.038048471997477E1   1.394877938986857E2  -5.474324566207656E-1  -6.412654532567474E1  
 5.400000000000000E9    -8.827151625635509  -1.442157910873472E2  -2.009498293150926E1   5.104534013315634E1   1.035285888828031E1   1.390077278761820E2  -5.505646230184379E-1  -6.512218797558361E1  
 5.500000000000000E9    -8.746395741260198  -1.445162152721473E2  -1.997066172327284E1   5.038960738814891E1   1.031883738888683E1   1.382778315575725E2  -5.833500115194948E-1  -6.617347263719510E1  
 5.600000000000000E9    -8.603267302439187  -1.440678927333278E2  -1.989177749251289E1   4.982536557446034E1   1.027994418459637E1   1.376230741307326E2  -5.908462376763946E-1  -6.716235706777678E1  
 5.700000000000000E9    -8.599900057496960  -1.448864581960441E2  -1.976450314804324E1   4.940259743249956E1   1.022008385484480E1   1.369448436942987E2  -6.084551642658298E-1  -6.818971522508542E1  
 5.800000000000000E9    -8.419335277391426  -1.446084850447451E2  -1.968926220098863E1   4.856568204020266E1   1.015941709461959E1   1.366078966617511E2  -6.261393712986492E-1  -6.905440715541982E1  
 5.900000000000000E9    -8.449275990905033  -1.450095358844958E2  -1.958041601192806E1   4.820106435461288E1   1.013075272601107E1   1.359193457645370E2  -6.418909904837599E-1  -7.015272588196062E1  
 6.000000000000000E9    -8.288337161184776  -1.454910732211916E2  -1.950825714711294E1   4.756257725213159E1   1.005269890547647E1   1.353520875476243E2  -6.613284410402321E-1  -7.094423606376981E1  
 6.100000000000000E9    -8.260037648869851  -1.457836549311613E2  -1.942456711372529E1   4.723720840277695E1   1.001326334291381E1   1.347395892199435E2  -6.666964648808691E-1  -7.194559516293445E1  
 6.200000000000000E9    -8.211667289889356  -1.458811511448660E2  -1.932868025053277E1   4.660056542124411E1   9.962451406676799   1.341569127623469E2  -6.945994372413927E-1  -7.279362229293568E1  
 6.300000000000000E9    -8.117361536734048  -1.465881754856868E2  -1.926229413638620E1   4.623821828688433E1   9.832997400828987   1.335417766660068E2  -7.075333191183326E-1  -7.357988956133107E1  
 6.400000000000000E9    -8.032388152143403  -1.462637048853435E2  -1.913489509633759E1   4.559726891837480E1   9.861382128234093   1.330079354137042E2  -7.163811808362979E-1  -7.464506860743960E1  
 6.500000000000000E9    -8.013715188466088  -1.474582082246091E2  -1.908051683408938E1   4.507476504529016E1   9.807958148321957   1.323907394900170E2  -7.365103003099461E-1  -7.573605330289914E1  
 6.600000000000000E9    -7.884142442462224  -1.470095731177640E2  -1.899016840054702E1   4.468176650418079E1   9.755527071456331   1.318063609909184E2  -7.564313766273270E-1  -7.652311191292445E1  
 6.700000000000000E9    -7.882918277964082  -1.473571421118201E2  -1.890669254246165E1   4.398201091716557E1   9.703518866014250   1.311996078709267E2  -7.727956008834862E-1  -7.749207671786182E1  
 6.800000000000000E9    -7.676371761414170  -1.475143095175909E2  -1.885223046044380E1   4.342383303179093E1   9.631800987598220   1.306129419357105E2  -7.743480658903723E-1  -7.832470741787235E1  
 6.900000000000000E9    -7.637009039213737  -1.473743834373173E2  -1.878674636584876E1   4.267882232889087E1   9.564283490258733   1.301430242983472E2  -8.046318612047145E-1  -7.920423458934876E1  
 7.000000000000000E9    -7.494768207982559  -1.486183032155520E2  -1.878314980426832E1   4.228539401528536E1   9.504632666441266   1.296281983945732E2  -8.116533283586334E-1  -8.000350820339705E1  
 7.100000000000000E9    -7.501607120765431  -1.487778735208434E2  -1.871135782541013E1   4.193909443076876E1   9.465981374967738   1.290661108901610E2  -8.217489406160188E-1  -8.084483542710106E1  
 7.200000000000000E9    -7.408049297279265  -1.490879316417262E2  -1.864734872007877E1   4.151658686126283E1   9.400739805511352   1.284938638454427E2  -8.502637016076176E-1  -8.163728078705061E1  
 7.300000000000000E9    -7.391347676181217  -1.491032676194415E2  -1.854877667755158E1   4.108206048078829E1   9.336028816117727   1.279860275099301E2  -8.731519862760256E-1  -8.241983986951401E1  
 7.400000000000000E9    -7.248651805085783  -1.492797804806884E2  -1.851424263917203E1   4.028140933970122E1   9.269732903760662   1.275461755908210E2  -8.771101882889831E-1  -8.322503452262092E1  
 7.500000000000000E9    -7.236590682411764  -1.499236963111109E2  -1.848691940877019E1   4.000678210265507E1   9.227953269858473   1.270499517720862E2  -8.955772232958279E-1  -8.423076228137578E1  
 7.600000000000000E9    -7.129596020337147  -1.499625617730524E2  -1.840525842671475E1   3.948511348835704E1   9.149147763695234   1.265483163379780E2  -8.977506211094161E-1  -8.482772117641146E1  
 7.700000000000000E9    -7.048441661670925  -1.501963404254993E2  -1.835776534536989E1   3.883950403208080E1   9.096827712248304   1.260561426669756E2  -9.157948761250651E-1  -8.564095009147415E1  
 7.800000000000000E9    -6.968353343241165  -1.500799729383793E2  -1.827573443110097E1   3.846460853818152E1   9.047643741522171   1.255963136047836E2  -9.151858739485115E-1  -8.641651952166068E1  
 7.900000000000000E9    -6.898383522432519  -1.503370304003733E2  -1.827236219383268E1   3.762628861896162E1   8.989902295206603   1.251127997194123E2  -9.399513570451921E-1  -8.730794502216439E1  
 8.000000000000000E9    -6.851141671689548  -1.509917589845203E2  -1.820282272526726E1   3.795920502212486E1   8.944525235344079   1.247020459596989E2  -9.393641462401050E-1  -8.796814880551618E1  
 8.100000000000000E9    -6.946048058948821  -1.510457102787574E2  -1.816462913636541E1   3.705409669889295E1   8.945022095319352   1.241941332813658E2  -9.478150732498265E-1  -8.886096486687396E1  
 8.200000000000000E9    -6.863192309111734  -1.520909363384605E2  -1.811395418441959E1   3.696474812674080E1   8.889926217574631   1.235932613625979E2  -9.737466378132955E-1  -8.962392783698554E1  
 8.300000000000000E9    -6.880338514387363  -1.509281241606919E2  -1.802405260490082E1   3.643372535998943E1   8.850315582131731   1.232393498993529E2  -9.822432482941841E-1  -9.031359929362306E1  
 8.400000000000000E9    -6.913306988585505  -1.517955228857908E2  -1.797000788682211E1   3.619495407420098E1   8.795932152221058   1.226981012063358E2  -9.915792128395714E-1  -9.111058013702983E1  
 8.500000000000000E9    -6.791404345901979  -1.520443989666271E2  -1.791593355489619E1   3.571327788779485E1   8.753143736528084   1.222207789354980E2  -1.005454394614526  -9.192351082681026E1  
 8.600000000000000E9    -6.793414967289078  -1.518081763871287E2  -1.787884167720199E1   3.552011789447276E1   8.698319939814416   1.218436297769415E2  -1.020530073580905  -9.254820191981190E1  
 8.700000000000000E9    -6.772984398886739  -1.528485122308199E2  -1.782143010284094E1   3.506792049869726E1   8.643443881587162   1.212913105919133E2  -1.021995810365996  -9.333072736622722E1  
 8.800000000000000E9    -6.659922262089309  -1.525138944243419E2  -1.775988654986452E1   3.493072280714993E1   8.582433134766397   1.208301626942751E2  -1.064121480932603  -9.395181778574099E1  
 8.900000000000000E9    -6.790968259332265  -1.526811678761793E2  -1.769855890183331E1   3.446764435809623E1   8.550112185792195   1.204045193335446E2  -1.059955499333277  -9.476556389046382E1  
 9.000000000000000E9    -6.631869711832461  -1.539569808511422E2  -1.767361650512596E1   3.395087085329588E1   8.464846767577850   1.197955344582210E2  -1.077368142519356  -9.550577161322870E1  
 9.100000000000000E9    -6.650622796160205  -1.529371889181081E2  -1.762198437941732E1   3.335399121236038E1   8.420610197804377   1.194779507675998E2  -1.081821144890624  -9.621443843059240E1  
 9.200000000000000E9    -6.636858228853435  -1.550864654028592E2  -1.761124407458383E1   3.323336282875935E1   8.361256115511512   1.189380081433634E2  -1.095342255615110  -9.690928005968780E1  
 9.300000000000000E9    -6.488727464357370  -1.541431170274269E2  -1.754247471237800E1   3.283464510330724E1   8.307475591148966   1.185572617009023E2  -1.108965179896318  -9.750951353724159E1  
 9.400000000000000E9    -6.640923159296118  -1.542102400396100E2  -1.749286146637948E1   3.244248519478258E1   8.259369709043854   1.181250080457938E2  -1.134290986188869  -9.820971257747897E1  
 9.500000000000000E9    -6.437172832819733  -1.553471452579165E2  -1.747038065162742E1   3.167471805099750E1   8.194887011628012   1.175574563383540E2  -1.142326064958563  -9.906518782051158E1  
 9.600000000000000E9    -6.369892622126939  -1.544400940904631E2  -1.746612052393996E1   3.110707117314531E1   8.130455975538606   1.171606809002565E2  -1.147379588211220  -9.961195310556818E1  
 9.700000000000000E9    -6.409578786452382  -1.555555910991170E2  -1.745247248485560E1   3.082069974227484E1   8.066646347243980   1.167897733233599E2  -1.160045508902991  -1.004019344744870E2  
 9.800000000000000E9    -6.251561898166454  -1.558664760652667E2  -1.743993184190603E1   3.057387054461984E1   8.006856690600952   1.163597548286489E2  -1.170560687811423  -1.010026938237642E2  
