#  HZ   S   DB   R     50.00 
! Rohde & Schwarz ZVA50 4Ports - Version 4.11 - 1145.1110k52 SN: 100136
! Date: 2022-09-20 22:18:54
! Measurements: S11 S21 S12 S22 
! 
 1.000000000000000E8    -1.804317559695854E1   1.772849565844172E1  -5.397180506237172E1   4.731964661224947E1   2.061547054410677E1  -1.794375557013073E2  -1.559400276010145E-2  -1.762043970829440  
 2.000000000000000E8    -1.606836993516362E1   1.658085611460050E1  -4.893178878507849E1   8.330453526224348E1   2.078134556465320E1  -1.797131879327921E2  -3.666323025404236E-2  -3.402993980986277  
 3.000000000000000E8    -1.477966691684740E1   1.285926070522529E1  -4.492515085468573E1   8.408940748294835E1   2.090438428440982E1   1.796409261757189E2  -2.668043487256487E-2  -5.094501355415336  
 4.000000000000000E8    -1.393136918783801E1   7.043389104690467  -4.210662827785220E1   8.716173100479266E1   2.101418100137057E1   1.783705978982596E2  -2.570877687489843E-2  -6.967171370523325  
 5.000000000000000E8    -1.334204023452921E1   2.052822318457381  -4.022907954360395E1   8.550350174685288E1   2.108439572551177E1   1.771403758178027E2  -1.243479682579508E-2  -8.866832501691874  
 6.000000000000000E8    -1.301699259193739E1  -3.206081594914128  -3.862059984909823E1   8.474505456337734E1   2.112384064387585E1   1.759560069250437E2  -2.116547715304200E-2  -1.048185787212936E1  
 7.000000000000000E8    -1.271421687870562E1  -7.936661543604571  -3.728241618717436E1   8.361041361988337E1   2.114168960110609E1   1.748020066481916E2  -3.171843813680887E-2  -1.229377656400195E1  
 8.000000000000000E8    -1.251062041139255E1  -1.250210049132019E1  -3.609156562150957E1   8.285871668907190E1   2.116898854940738E1   1.736160316448181E2  -2.568336133073651E-2  -1.400485438851528E1  
 9.000000000000000E8    -1.227337097108583E1  -1.672590405063207E1  -3.502192958341243E1   8.187482237942420E1   2.115690788270858E1   1.723670075177291E2  -4.305101596861036E-2  -1.579384935740684E1  
 1.000000000000000E9    -1.212654890197426E1  -2.038175099843112E1  -3.412224596099551E1   8.071014051923687E1   2.115533286564105E1   1.712076130783142E2  -4.721624591637430E-2  -1.750998325315457E1  
 1.100000000000000E9    -1.194932789196414E1  -2.421209990635249E1  -3.330838631668468E1   8.012764201894277E1   2.114938044761580E1   1.700664324946177E2  -5.549497414817060E-2  -1.927373469761252E1  
 1.200000000000000E9    -1.182364828479495E1  -2.780050925301771E1  -3.259066308151196E1   7.886074286194108E1   2.112897831648870E1   1.689599797625207E2  -6.693381206381320E-2  -2.091697483708553E1  
 1.300000000000000E9    -1.165397427718923E1  -3.101441811345924E1  -3.189425910452967E1   7.780085855108315E1   2.110916410356045E1   1.678859691249866E2  -7.985281926351927E-2  -2.267931527027288E1  
 1.400000000000000E9    -1.152401015468903E1  -3.407853089975974E1  -3.127635313460057E1   7.714811049589794E1   2.108786591513021E1   1.667838315678698E2  -8.430352566161622E-2  -2.436002946027530E1  
 1.500000000000000E9    -1.139534333366029E1  -3.747207235108653E1  -3.071549809583647E1   7.597440100668945E1   2.106275214608909E1   1.656640436974213E2  -9.112303116909902E-2  -2.605776450732813E1  
 1.600000000000000E9    -1.124601445297036E1  -4.032492800883905E1  -3.020333918362982E1   7.517453897991247E1   2.102846688524996E1   1.646896595380183E2  -1.003612273455240E-1  -2.769781744961184E1  
 1.700000000000000E9    -1.106125473677912E1  -4.345638183972700E1  -2.967530709037397E1   7.404921041241748E1   2.098121772390385E1   1.635971809195116E2  -1.144754884893541E-1  -2.947004089384105E1  
 1.800000000000000E9    -1.095333392269154E1  -4.600555310264642E1  -2.921304642263106E1   7.330043751056523E1   2.095203828631115E1   1.625548699756999E2  -1.253872745935546E-1  -3.107412183416046E1  
 1.900000000000000E9    -1.078141401622210E1  -4.892397543659257E1  -2.878185394052745E1   7.236334038438702E1   2.091225900885316E1   1.615748618163693E2  -1.399310184632409E-1  -3.275918604367022E1  
 2.000000000000000E9    -1.066260223839458E1  -5.127394450744450E1  -2.836598601522761E1   7.150433021978303E1   2.086670893291331E1   1.606177564521550E2  -1.536131912495742E-1  -3.436466678404038E1  
 2.100000000000000E9    -1.048387040782915E1  -5.402739963800982E1  -2.797342621729299E1   7.062164306686150E1   2.082836844739182E1   1.596107058374796E2  -1.682618168597185E-1  -3.605499174077934E1  
 2.200000000000000E9    -1.040487411373507E1  -5.632934677880864E1  -2.760800524109815E1   6.973157718785124E1   2.079473317012959E1   1.586620209975331E2  -1.836260117325519E-1  -3.759976573193973E1  
 2.300000000000000E9    -1.023507384525145E1  -5.866344569369399E1  -2.726224294947950E1   6.867881212311691E1   2.074103019991754E1   1.577055968182550E2  -2.002365847159503E-1  -3.921142754967423E1  
 2.400000000000000E9    -1.015328130042616E1  -6.078575020834141E1  -2.695108292986939E1   6.776361068128496E1   2.069945044184399E1   1.567856071308249E2  -2.101743557686989E-1  -4.073897204308116E1  
 2.500000000000000E9    -9.992889119644900  -6.327442018275391E1  -2.661298315714370E1   6.691396793859111E1   2.063912271522963E1   1.557405941808664E2  -2.271885715679686E-1  -4.236730169826294E1  
 2.600000000000000E9    -9.896480565535587  -6.509094317694459E1  -2.634103693665506E1   6.602949178674587E1   2.057800836962602E1   1.549199846473140E2  -2.621647724554672E-1  -4.384217196676794E1  
 2.700000000000000E9    -9.777196902463102  -6.725097969436821E1  -2.605271400272258E1   6.508017337977601E1   2.053028599005560E1   1.539110208286625E2  -2.798025188731738E-1  -4.544247688706324E1  
 2.800000000000000E9    -9.670042676516971  -6.930660111375433E1  -2.582354559359784E1   6.419380790938098E1   2.047990736247660E1   1.530440940494014E2  -2.998381839825232E-1  -4.692275372832395E1  
 2.900000000000000E9    -9.573082500717412  -7.105109927581187E1  -2.557576956025942E1   6.342058239999641E1   2.041982396258423E1   1.521995073023940E2  -3.204230075633341E-1  -4.834582075192181E1  
 3.000000000000000E9    -9.454454671498649  -7.276365489863167E1  -2.531726182682608E1   6.260982035022561E1   2.037436554253613E1   1.512933781506275E2  -3.331338398561256E-1  -4.986811496616790E1  
 3.100000000000000E9    -9.345098569963332  -7.453058395020244E1  -2.505948869176610E1   6.184420791406663E1   2.031962805653443E1   1.505395346904228E2  -3.508887510528149E-1  -5.120840397827401E1  
 3.200000000000000E9    -9.277297924228313  -7.617967140314684E1  -2.488181685925368E1   6.084412493633570E1   2.026934966341048E1   1.496640589077158E2  -3.758690262288608E-1  -5.274500594476784E1  
 3.300000000000000E9    -9.188117232583515  -7.803264013079706E1  -2.466263768294938E1   6.023224954769933E1   2.020434579269761E1   1.488199055375515E2  -3.925873336806888E-1  -5.407111378367222E1  
 3.400000000000000E9    -9.048736911186191  -7.980371993874667E1  -2.445496453682974E1   5.925175637151813E1   2.015338518763508E1   1.478787748305314E2  -4.173150604281594E-1  -5.562177231803143E1  
 3.500000000000000E9    -8.951889987485462  -8.157763602141755E1  -2.425182743408244E1   5.857920735189014E1   2.009609432722547E1   1.469888808401794E2  -4.202193078216275E-1  -5.702533023863145E1  
 3.600000000000000E9    -8.838835905190356  -8.339631644045096E1  -2.407670994736478E1   5.772353632086848E1   2.003151451683370E1   1.461289306621910E2  -4.392985205918740E-1  -5.848318441189068E1  
 3.700000000000000E9    -8.763470479940450  -8.484883466298781E1  -2.388302301286179E1   5.702634716644926E1   1.996433914938084E1   1.453454024391855E2  -4.626545332061192E-1  -5.987858810551864E1  
 3.800000000000000E9    -8.675534131810787  -8.654965522993399E1  -2.371257408017645E1   5.622078943952097E1   1.990307071564371E1   1.444259469769200E2  -4.742808761491934E-1  -6.134907553177371E1  
 3.900000000000000E9    -8.549185404026545  -8.783129709956116E1  -2.356123834399775E1   5.561424327496108E1   1.983446097369749E1   1.437295089463476E2  -4.927284722921083E-1  -6.260240653686733E1  
 4.000000000000000E9    -8.406835044242559  -8.931386000513825E1  -2.340038003293294E1   5.498129958680362E1   1.976377439375682E1   1.429001994995801E2  -5.126925146416054E-1  -6.397921548417867E1  
 4.100000000000000E9    -8.348553746548001  -9.057157583191737E1  -2.328361381724398E1   5.419267907698323E1   1.969748707668810E1   1.422458958113299E2  -5.363164363372478E-1  -6.534106946154735E1  
 4.200000000000000E9    -8.253544001338169  -9.231302142014319E1  -2.314103509671300E1   5.347301377560996E1   1.962668910723254E1   1.414631945510839E2  -5.488325789658280E-1  -6.664850686037765E1  
 4.300000000000000E9    -8.208230769752335  -9.333669049660834E1  -2.299957068571315E1   5.281587107041815E1   1.955621808980728E1   1.407126853041734E2  -5.654410853186368E-1  -6.789015962447536E1  
 4.400000000000000E9    -8.076960863642553  -9.513418988869313E1  -2.287303048149282E1   5.213604368244402E1   1.948172073711673E1   1.399413962141694E2  -5.841175570701872E-1  -6.921253653764590E1  
 4.500000000000000E9    -7.989516343022642  -9.610124288434834E1  -2.274886353472214E1   5.143973176516688E1   1.941662758382615E1   1.392472885155131E2  -6.107131343505582E-1  -7.036815730409249E1  
 4.600000000000000E9    -7.902602955302908  -9.748295006509501E1  -2.262280666437020E1   5.080603616881898E1   1.933868904754814E1   1.384750657658686E2  -6.376329103315582E-1  -7.169153536435270E1  
 4.700000000000000E9    -7.853750377612130  -9.870780823190339E1  -2.249731014729147E1   5.018086750865477E1   1.926936286421010E1   1.378137142311881E2  -6.543560454224988E-1  -7.283593406777898E1  
 4.800000000000000E9    -7.709854394535348  -9.986095752996741E1  -2.238792355123441E1   4.959151880816123E1   1.919779642884200E1   1.371273413391392E2  -6.722997887184055E-1  -7.400978817614090E1  
 4.900000000000000E9    -7.686915292722906  -1.007678647365836E2  -2.228088354014277E1   4.896224314263419E1   1.912977202297612E1   1.364584662735876E2  -6.920265682918120E-1  -7.518654605052448E1  
 5.000000000000000E9    -7.615485798903023  -1.020421335406446E2  -2.216705878766695E1   4.838851488037079E1   1.905750484431076E1   1.357314715631542E2  -7.117817009539059E-1  -7.635073770084151E1  
 5.100000000000000E9    -7.565110350977293  -1.027208661480932E2  -2.206794609567039E1   4.759211949251286E1   1.898231906694007E1   1.351317260048062E2  -7.366245160453958E-1  -7.750918137530343E1  
 5.200000000000000E9    -7.514807675495235  -1.040633237276857E2  -2.197298978355476E1   4.690509047645545E1   1.890703145218475E1   1.345234505948534E2  -7.474210992146235E-1  -7.855467257245782E1  
 5.300000000000000E9    -7.440456428591232  -1.050719166244368E2  -2.187306220126309E1   4.643651978338006E1   1.884076895149998E1   1.338595874857348E2  -7.685174115483811E-1  -7.969147927410521E1  
 5.400000000000000E9    -7.392554928770625  -1.060722920745519E2  -2.178721486435016E1   4.568574990072678E1   1.877087646488688E1   1.332458010411915E2  -7.865641410787287E-1  -8.080133860965276E1  
 5.500000000000000E9    -7.348773528916281  -1.075695662014627E2  -2.170166384302079E1   4.516268854851035E1   1.870123898996678E1   1.325660874370782E2  -8.125112528244867E-1  -8.189830948445655E1  
 5.600000000000000E9    -7.234149492817601  -1.079437418928004E2  -2.162026318199509E1   4.453917799002804E1   1.863358489498927E1   1.320027739945749E2  -8.310221500624965E-1  -8.293993207624507E1  
 5.700000000000000E9    -7.281287397627053  -1.091329623602201E2  -2.155321511945402E1   4.401971252181989E1   1.855560774775379E1   1.313636240630417E2  -8.453746934583870E-1  -8.400483211193809E1  
 5.800000000000000E9    -7.086683648865666  -1.098486041018574E2  -2.144466006662169E1   4.349418129907791E1   1.848985673164686E1   1.308353639142926E2  -8.642349790912647E-1  -8.497029070401902E1  
 5.900000000000000E9    -7.136109536180406  -1.105642062288415E2  -2.137303612354772E1   4.289318858070727E1   1.841686097909528E1   1.302592775540535E2  -8.841159227880100E-1  -8.597742420368088E1  
 6.000000000000000E9    -7.038497937049315  -1.118046960885617E2  -2.130240074360622E1   4.240119085936804E1   1.833549632989819E1   1.296540872920408E2  -9.092447910750188E-1  -8.701530388752731E1  
 6.100000000000000E9    -7.012830036090607  -1.123965478769948E2  -2.122207871851975E1   4.180761130701501E1   1.826948529851275E1   1.291137813588018E2  -9.088178353585813E-1  -8.801901005290024E1  
 6.200000000000000E9    -7.009602830262044  -1.132855163603840E2  -2.115736317282218E1   4.136706319654783E1   1.819898230969112E1   1.285398512975774E2  -9.274264176411539E-1  -8.891401489520203E1  
 6.300000000000000E9    -6.944884361286317  -1.145043839860012E2  -2.109235361316554E1   4.081591923479157E1   1.812121523328638E1   1.279706343668973E2  -9.372532137397974E-1  -8.998894882860063E1  
 6.400000000000000E9    -6.890678399407611  -1.147382129261728E2  -2.100670704086653E1   4.019804399920057E1   1.804464259501221E1   1.275239559090200E2  -9.692788379598706E-1  -9.083643441343980E1  
 6.500000000000000E9    -6.924999314102866  -1.159740120481281E2  -2.094456314234673E1   3.973491729167282E1   1.798583414146691E1   1.269278327442031E2  -9.712665184529978E-1  -9.187053898576573E1  
 6.600000000000000E9    -6.765781183750266  -1.168386411870835E2  -2.090434711610912E1   3.925812294859668E1   1.790911268455748E1   1.262936529948789E2  -9.811765303436840E-1  -9.288657094718471E1  
 6.700000000000000E9    -6.828915713850936  -1.172732031316347E2  -2.081666626957273E1   3.881114071287152E1   1.785256674692576E1   1.258009123590686E2  -9.999720590999117E-1  -9.384385500338287E1  
 6.800000000000000E9    -6.675647665297925  -1.186123346191682E2  -2.077746633031923E1   3.823082467245719E1   1.776922334575142E1   1.251876923505780E2  -1.015166797825795  -9.488974555842322E1  
 6.900000000000000E9    -6.644028701823080  -1.187535421022472E2  -2.073668342508162E1   3.777433911044592E1   1.770069426968304E1   1.247145947022103E2  -1.045261312590842  -9.577567277892854E1  
 7.000000000000000E9    -6.609211275955833  -1.202993946894736E2  -2.068750367428424E1   3.722961361646878E1   1.762088267406556E1   1.241561418766011E2  -1.048061153168277  -9.664889092566966E1  
 7.100000000000000E9    -6.588019926685770  -1.207566087579721E2  -2.063271085852113E1   3.684828200653683E1   1.755777234313711E1   1.236789914964970E2  -1.061062942617882  -9.745704599601774E1  
 7.200000000000000E9    -6.527802557939974  -1.216781458929752E2  -2.058602369301244E1   3.642178124173552E1   1.747970873897440E1   1.231961682627561E2  -1.077648603322364  -9.828477862944931E1  
 7.300000000000000E9    -6.520094622231622  -1.222012709188650E2  -2.053468816851404E1   3.601496353932754E1   1.740768746600633E1   1.226677436663306E2  -1.103590883164050  -9.920166642109396E1  
 7.400000000000000E9    -6.425098794094341  -1.229703509611429E2  -2.048863187511886E1   3.552466936822032E1   1.732618665198460E1   1.222123179960976E2  -1.123025457216995  -1.000637685679743E2  
 7.500000000000000E9    -6.450521610087677  -1.234929438607730E2  -2.043476795177561E1   3.511448451208914E1   1.726799940492891E1   1.217696001199175E2  -1.131528169905622  -1.008904661485449E2  
 7.600000000000000E9    -6.357000890529792  -1.244826130831911E2  -2.040789898617236E1   3.466124620816318E1   1.718196489562768E1   1.212421471114220E2  -1.136528253282230  -1.017380069743283E2  
 7.700000000000000E9    -6.308425014575785  -1.251419387657817E2  -2.035330481761746E1   3.425290344881197E1   1.711301883115489E1   1.208461712578193E2  -1.154917599825980  -1.025394973692520E2  
 7.800000000000000E9    -6.226669575808312  -1.256659378469166E2  -2.031695096152853E1   3.381473550739290E1   1.704034107008650E1   1.203506171584129E2  -1.172448630173815  -1.034238372566498E2  
 7.900000000000000E9    -6.261486269250857  -1.260755272415729E2  -2.028329907178393E1   3.346248339637013E1   1.696848487791131E1   1.199378707370967E2  -1.198612257687739  -1.042045580659934E2  
 8.000000000000000E9    -6.177553093867220  -1.268161784524614E2  -2.020239416864687E1   3.343916232138940E1   1.690242351598491E1   1.195269303891902E2  -1.201417150621603  -1.048657782158631E2  
 8.100000000000000E9    -6.271633427213946  -1.266383419191047E2  -2.016470333404206E1   3.253155715821879E1   1.684994788906946E1   1.193387586365045E2  -1.201685212935062  -1.054801514203890E2  
 8.200000000000000E9    -6.199094174296428  -1.282565835123974E2  -2.013995932895217E1   3.209459416710232E1   1.678511621272167E1   1.188527437823725E2  -1.223868630964223  -1.061788287075594E2  
 8.300000000000000E9    -6.144670366219719  -1.275011472060688E2  -2.010290061992363E1   3.172405903907743E1   1.671490624548098E1   1.184866947427485E2  -1.248006659065257  -1.069291108636133E2  
 8.400000000000000E9    -6.257635902803554  -1.285953891466421E2  -2.007585863651839E1   3.130226721418427E1   1.665760081867143E1   1.180920165888245E2  -1.249781384027910  -1.076152454776572E2  
 8.500000000000000E9    -6.138069682916498  -1.291622398975240E2  -2.002646078146832E1   3.100065003413146E1   1.659073683277808E1   1.176574466004317E2  -1.258830919639123  -1.083669068950020E2  
 8.600000000000000E9    -6.093594924769137  -1.289844460486250E2  -1.998724897550762E1   3.067586263202515E1   1.652224958773429E1   1.173269590067479E2  -1.275008052969846  -1.088941761281068E2  
 8.700000000000000E9    -6.125854321912008  -1.304568654890267E2  -1.995691663677873E1   3.025482310933332E1   1.646171779963392E1   1.167764766396969E2  -1.268917401574421  -1.097424643078916E2  
 8.800000000000000E9    -5.968267550682697  -1.306968673932302E2  -1.993050878925113E1   2.990040254141416E1   1.638765409160013E1   1.163883745498253E2  -1.299103164358402  -1.103745654617608E2  
 8.900000000000000E9    -6.127215559366715  -1.306530757758818E2  -1.989427577235871E1   2.966306287726367E1   1.635139739867313E1   1.159830746260120E2  -1.295009977703881  -1.111374484064299E2  
 9.000000000000000E9    -6.031208719907224  -1.327108473780315E2  -1.986618506778095E1   2.908267186200463E1   1.627315821885603E1   1.153262042225165E2  -1.296434942927911  -1.119852736111431E2  
 9.100000000000000E9    -6.023116312805949  -1.317001714803854E2  -1.981940634856682E1   2.884995080903785E1   1.622459694779828E1   1.149748924085370E2  -1.305862940276360  -1.126414215216700E2  
 9.200000000000000E9    -6.098477787092042  -1.341508014659765E2  -1.981980947487934E1   2.835589124448034E1   1.614477456620431E1   1.144749498624275E2  -1.316804977265373  -1.133071329171282E2  
 9.300000000000000E9    -5.848272696166013  -1.339975170686224E2  -1.978401016081634E1   2.796796327357248E1   1.608111624862874E1   1.140473245952818E2  -1.340116579551075  -1.140311368001234E2  
 9.400000000000000E9    -6.056516036615449  -1.338729488332429E2  -1.976912944535460E1   2.773893176306372E1   1.602284933084273E1   1.137809499336633E2  -1.349473112299079  -1.146121084162047E2  
 9.500000000000000E9    -5.938471338878814  -1.356914818744365E2  -1.973714900458739E1   2.733061298224347E1   1.595300242765396E1   1.132635126759505E2  -1.349843350352137  -1.155229453191757E2  
 9.600000000000000E9    -5.870147614640247  -1.351242069471778E2  -1.971755362599409E1   2.699067275369911E1   1.588172726536830E1   1.128630488857207E2  -1.359300608126819  -1.161430602818943E2  
 9.700000000000000E9    -5.966733051228279  -1.362178448320576E2  -1.969127876738370E1   2.663082521685123E1   1.580950748646203E1   1.125462692166954E2  -1.370087193862984  -1.167680895918042E2  
 9.800000000000000E9    -5.806571530076949  -1.370452559798517E2  -1.968816277340687E1   2.626655890768780E1   1.572552319983756E1   1.121617573013584E2  -1.380707963905051  -1.174991208606840E2  
