#  HZ   S   DB   R     50.00 
! Rohde & Schwarz ZVA50 4Ports - Version 4.11 - 1145.1110k52 SN: 100136
! Date: 2022-09-20 22:12:10
! Measurements: S11 S21 S12 S22 
! 
 1.000000000000000E8    -1.428554851824551E1  -4.012649660014509  -5.063848094986281E1   8.074670747737348E1   1.665251670527559E1   1.787630917442685E2   6.953004238342897E-3  -1.427621463457016  
 2.000000000000000E8    -1.433488113903482E1  -6.886389014662216  -4.587449229256308E1   8.526780407920352E1   1.659967026671070E1   1.775805404704875E2  -1.514355614655573E-2  -3.027832197132313  
 3.000000000000000E8    -1.427538449592011E1  -1.036640107578350E1  -4.260968761460455E1   8.544342400609877E1   1.659698936396557E1   1.764386282678295E2  -1.368201493408536E-2  -4.742787153631591  
 4.000000000000000E8    -1.421800997707957E1  -1.349448188058556E1  -4.009160516238266E1   8.647612131274616E1   1.645821148000045E1   1.758067791206163E2  -2.395176486795551E-2  -6.195686850876893  
 5.000000000000000E8    -1.416778405696237E1  -1.692163490673172E1  -3.818176671154679E1   8.458468798025497E1   1.653278525145630E1   1.751983204029106E2  -1.885968740366451E-2  -7.680427074813972  
 6.000000000000000E8    -1.404040723345198E1  -2.010541142478032E1  -3.661593419867719E1   8.406879116671144E1   1.643206531446936E1   1.741539488244843E2  -3.410377658544114E-2  -9.210415970746002  
 7.000000000000000E8    -1.401063744304004E1  -2.374229231028788E1  -3.528436448714143E1   8.294410018011632E1   1.644772224050637E1   1.738897080168362E2  -2.517235750245100E-2  -1.076079758701317E1  
 8.000000000000000E8    -1.394859131076102E1  -2.675203297217377E1  -3.412775337631594E1   8.265145775996274E1   1.652924808716159E1   1.728258426882540E2  -2.640299900899099E-2  -1.230493898731831E1  
 9.000000000000000E8    -1.379257496540896E1  -3.010507069604148E1  -3.316453367795564E1   8.134744007837004E1   1.650622799199831E1   1.716691472646927E2  -4.334965930873224E-2  -1.381616880070083E1  
 1.000000000000000E9    -1.369883725704658E1  -3.305460403587136E1  -3.225050339120296E1   8.052467019854142E1   1.649223279765751E1   1.705920315074941E2  -4.466655098550655E-2  -1.537827594694665E1  
 1.100000000000000E9    -1.356107581611104E1  -3.624905816986009E1  -3.146765582256926E1   7.975413155590138E1   1.653086839453099E1   1.697269959084021E2  -5.348568297298045E-2  -1.690804968956664E1  
 1.200000000000000E9    -1.348895492053600E1  -3.914615395967797E1  -3.073707202324948E1   7.875873449206890E1   1.647991544453098E1   1.686937444605921E2  -6.651248926799343E-2  -1.832111024844867E1  
 1.300000000000000E9    -1.333878594814760E1  -4.191170539279535E1  -3.007481605717715E1   7.778320723999438E1   1.647214885951308E1   1.678809422456189E2  -7.453778765799225E-2  -1.992393140242514E1  
 1.400000000000000E9    -1.323274631564396E1  -4.444326660475536E1  -2.946055078634218E1   7.710461733580289E1   1.645707159608284E1   1.665896538913109E2  -8.325116397616830E-2  -2.134775168120529E1  
 1.500000000000000E9    -1.300333105861110E1  -4.750140853279704E1  -2.889002548716569E1   7.619506559090584E1   1.634415999994090E1   1.657128637549168E2  -8.895941763219463E-2  -2.277002510749216E1  
 1.600000000000000E9    -1.286401247073188E1  -5.003801162044096E1  -2.835999748425314E1   7.523112050315170E1   1.633382000894412E1   1.648285951631557E2  -1.018333636179941E-1  -2.427429813447722E1  
 1.700000000000000E9    -1.258533121091429E1  -5.348746332347324E1  -2.785668054143048E1   7.433401039314218E1   1.619201320696096E1   1.640968000418467E2  -1.030892799065245E-1  -2.566244032359047E1  
 1.800000000000000E9    -1.257437802422413E1  -5.539728929647394E1  -2.742998950974884E1   7.357255203765473E1   1.623269243967964E1   1.634981869235905E2  -1.094847881534536E-1  -2.710968003099719E1  
 1.900000000000000E9    -1.227144220872308E1  -5.818561304564819E1  -2.695026677020730E1   7.261663718050147E1   1.616704350964161E1   1.625958401566899E2  -1.264698838594002E-1  -2.862644792935431E1  
 2.000000000000000E9    -1.226093396728980E1  -6.046849739627649E1  -2.656759535328343E1   7.183384931152227E1   1.614233708799948E1   1.619160091233141E2  -1.310745490516981E-1  -3.000892341312522E1  
 2.100000000000000E9    -1.194492865721953E1  -6.347004202160665E1  -2.618247133421097E1   7.088817068696564E1   1.610448477902745E1   1.612139873614825E2  -1.409737408253571E-1  -3.147525800163092E1  
 2.200000000000000E9    -1.190335492364895E1  -6.518572722993898E1  -2.580823390551670E1   7.025535732657413E1   1.616181928900513E1   1.600920164715878E2  -1.650889146882212E-1  -3.298975220466622E1  
 2.300000000000000E9    -1.168934414090154E1  -6.728155589524815E1  -2.547123653309771E1   6.925945448677327E1   1.609969345878630E1   1.592846274919895E2  -1.803694056880462E-1  -3.437739574083141E1  
 2.400000000000000E9    -1.161903929981520E1  -6.888468835714320E1  -2.514341741684144E1   6.846191000772237E1   1.613303244350798E1   1.582494152316328E2  -1.951343890596737E-1  -3.585274422557408E1  
 2.500000000000000E9    -1.137608222932654E1  -7.138338111969055E1  -2.481059713503348E1   6.752201982669216E1   1.599366311465973E1   1.572894533144783E2  -2.059127915198177E-1  -3.715319169103543E1  
 2.600000000000000E9    -1.131688781100812E1  -7.259895870244441E1  -2.453514681499673E1   6.689238443693117E1   1.598843510060116E1   1.567057576182340E2  -2.130403362268928E-1  -3.850761710243117E1  
 2.700000000000000E9    -1.112319342897259E1  -7.493164446689750E1  -2.424736179441148E1   6.583843602600958E1   1.593338368458734E1   1.555461121658233E2  -2.513989127983576E-1  -3.996810855196564E1  
 2.800000000000000E9    -1.102570546643705E1  -7.619712697348665E1  -2.398579672406289E1   6.512047899476953E1   1.589344610927227E1   1.548961986870224E2  -2.565461857475356E-1  -4.131721158642457E1  
 2.900000000000000E9    -1.091907827437083E1  -7.759208059418781E1  -2.371788594658413E1   6.445287749722245E1   1.587383896841569E1   1.541861973321150E2  -2.708181635959328E-1  -4.259347051696043E1  
 3.000000000000000E9    -1.076414875460719E1  -7.906120865959205E1  -2.346030369796904E1   6.358177508174224E1   1.583847066005404E1   1.533689500572149E2  -3.004777640408295E-1  -4.402274270153315E1  
 3.100000000000000E9    -1.062643931971489E1  -8.056928775907376E1  -2.322285801394537E1   6.280970210994718E1   1.585201406424813E1   1.527723458420203E2  -2.936776630409763E-1  -4.537144264199333E1  
 3.200000000000000E9    -1.052341818842258E1  -8.141399868823886E1  -2.300807068338933E1   6.209405020603789E1   1.583885336570354E1   1.517028534913771E2  -3.283905812674376E-1  -4.685875873625746E1  
 3.300000000000000E9    -1.042641031895404E1  -8.282403938963790E1  -2.275096320898815E1   6.136202082730615E1   1.579771871885937E1   1.508415878858466E2  -3.442099930808926E-1  -4.807815495190374E1  
 3.400000000000000E9    -1.024821948914113E1  -8.432602706246124E1  -2.254381258984958E1   6.055111773192392E1   1.577036307488923E1   1.499771417468232E2  -3.741440718401569E-1  -4.951624119718269E1  
 3.500000000000000E9    -1.007491656091452E1  -8.568814954616668E1  -2.233298044697123E1   5.977393794671228E1   1.571065386579806E1   1.488959657991292E2  -3.979338362464203E-1  -5.078410842510611E1  
 3.600000000000000E9    -9.890395969681663  -8.709507411744556E1  -2.212356902350496E1   5.892613513867737E1   1.561357292695814E1   1.479508281118780E2  -4.176504673518527E-1  -5.202212246903916E1  
 3.700000000000000E9    -9.809971181804860  -8.858923474364441E1  -2.195001311418167E1   5.825495886049677E1   1.557083096447082E1   1.472694389884515E2  -4.271180604346991E-1  -5.332404819243169E1  
 3.800000000000000E9    -9.671437539310354  -8.972261582470402E1  -2.175191472737156E1   5.756282422903495E1   1.547282355192524E1   1.461474580697453E2  -4.584836491166086E-1  -5.448654525824113E1  
 3.900000000000000E9    -9.496416908671442  -9.072472319977973E1  -2.157372441500112E1   5.682675258027988E1   1.537387670834570E1   1.456684762713745E2  -4.693931075744514E-1  -5.565364837642690E1  
 4.000000000000000E9    -9.323221900475028  -9.195220031595596E1  -2.140161214914941E1   5.617886023330551E1   1.531719554274728E1   1.449376190254672E2  -4.803196274363943E-1  -5.689833001579356E1  
 4.100000000000000E9    -9.123234054622737  -9.365270987811192E1  -2.128633688183749E1   5.518333503593458E1   1.526235682097606E1   1.445187556154395E2  -4.897351708458037E-1  -5.812251516656909E1  
 4.200000000000000E9    -9.088213978374020  -9.552306618357861E1  -2.115306268739047E1   5.457013099479538E1   1.519337061090199E1   1.437628012373989E2  -5.054747843487029E-1  -5.935388161518446E1  
 4.300000000000000E9    -9.016726030200529  -9.600674002751201E1  -2.099067468676875E1   5.392342362768945E1   1.514345365573937E1   1.430324542568342E2  -5.236237284537305E-1  -6.048032762670182E1  
 4.400000000000000E9    -8.858546074514278  -9.850785597044742E1  -2.088165380360852E1   5.325289258233569E1   1.504077413083260E1   1.422657563407005E2  -5.410671608179059E-1  -6.159671302601095E1  
 4.500000000000000E9    -8.788604493423611  -9.878054812488053E1  -2.071471555529288E1   5.264018367588631E1   1.502665766691097E1   1.415049417043548E2  -5.682583400417911E-1  -6.281079997695315E1  
 4.600000000000000E9    -8.652753055300382  -1.006230990162241E2  -2.062453970575744E1   5.186627807622150E1   1.494053386939230E1   1.407733310500372E2  -5.892018215034595E-1  -6.402013111121849E1  
 4.700000000000000E9    -8.697582199068261  -1.016655731145116E2  -2.050164602732626E1   5.153763769564140E1   1.490189149130006E1   1.402205316037639E2  -6.053440894922632E-1  -6.515217404592914E1  
 4.800000000000000E9    -8.514782855701967  -1.030383443231930E2  -2.038674879541353E1   5.084787019471237E1   1.483378700410820E1   1.395070618393955E2  -6.136604214967838E-1  -6.621330962592511E1  
 4.900000000000000E9    -8.505759846729688  -1.038909946105317E2  -2.027593207859838E1   5.028350897056227E1   1.477205604448440E1   1.390420692264506E2  -6.273872920385697E-1  -6.732488229075489E1  
 5.000000000000000E9    -8.440492875371723  -1.047992437297909E2  -2.016003544147032E1   4.965164898051877E1   1.472964771669627E1   1.384077905830457E2  -6.486320169538660E-1  -6.842604540236394E1  
 5.100000000000000E9    -8.371311344361901  -1.053575782969442E2  -2.005284325560045E1   4.892022934915599E1   1.468822461593819E1   1.377499954276431E2  -6.732570976885924E-1  -6.960882604645614E1  
 5.200000000000000E9    -8.345028677595028  -1.069850873775684E2  -1.995650779010820E1   4.842646862211286E1   1.463494202242786E1   1.370474806250788E2  -6.881123116233635E-1  -7.073480144678860E1  
 5.300000000000000E9    -8.298030729278565  -1.078967813424815E2  -1.985410643065483E1   4.777838273452613E1   1.456980912218751E1   1.364081243979962E2  -7.071703834057987E-1  -7.173438696827260E1  
 5.400000000000000E9    -8.272915662062793  -1.088061591618967E2  -1.975491162320501E1   4.732358479762275E1   1.452886804688502E1   1.358979014377740E2  -7.134030159707444E-1  -7.284027194551696E1  
 5.500000000000000E9    -8.221086314231881  -1.096697768592540E2  -1.964591385686324E1   4.666502685623794E1   1.447507579428821E1   1.351540596470079E2  -7.517119402480056E-1  -7.388134245915344E1  
 5.600000000000000E9    -8.076425133051176  -1.102368513407265E2  -1.956335342471413E1   4.607720196332141E1   1.442872006575161E1   1.345180998526182E2  -7.733153740541485E-1  -7.501701055547225E1  
 5.700000000000000E9    -8.083705077353466  -1.110899574825683E2  -1.945136653628066E1   4.547093795248461E1   1.436552078429561E1   1.338158166032274E2  -7.858334616802882E-1  -7.603865939347041E1  
 5.800000000000000E9    -7.887401392592769  -1.120698946731473E2  -1.938550235866578E1   4.484681392521416E1   1.429630176449505E1   1.334997871828627E2  -8.010339509271006E-1  -7.693060192044784E1  
 5.900000000000000E9    -7.934446601025547  -1.124953201619600E2  -1.929381040524231E1   4.441304179579323E1   1.425890373105707E1   1.327922965094451E2  -8.293369573986852E-1  -7.804552089413988E1  
 6.000000000000000E9    -7.818174486604863  -1.138903920805519E2  -1.922313416558576E1   4.378511346143831E1   1.416805638427977E1   1.322163061265857E2  -8.385602722113597E-1  -7.895410393379885E1  
 6.100000000000000E9    -7.851602185023027  -1.145419266440935E2  -1.915189937995599E1   4.337398162597370E1   1.411863529315516E1   1.316017575887227E2  -8.573099156389452E-1  -7.996593874615076E1  
 6.200000000000000E9    -7.765858014685571  -1.151336543834095E2  -1.906404792696053E1   4.278307134138989E1   1.405970194701458E1   1.309041412442446E2  -8.793480769140732E-1  -8.085941746358064E1  
 6.300000000000000E9    -7.739005570207718  -1.163732381024622E2  -1.899013557056889E1   4.227580187387254E1   1.395712512666461E1   1.303470894575936E2  -8.928112725203163E-1  -8.175421188356368E1  
 6.400000000000000E9    -7.645951392193223  -1.163769837254684E2  -1.890701328884250E1   4.165883921292914E1   1.394248056395241E1   1.299716537166504E2  -9.130769496484344E-1  -8.281392185375677E1  
 6.500000000000000E9    -7.684800136073701  -1.178231750853751E2  -1.884025313791414E1   4.120141017225743E1   1.389001534754598E1   1.292590956789905E2  -9.347856673273512E-1  -8.386031416071627E1  
 6.600000000000000E9    -7.542863872628477  -1.181962804396385E2  -1.876261273391719E1   4.070136441997052E1   1.379993431325663E1   1.287092392825661E2  -9.494139375697016E-1  -8.468630161160768E1  
 6.700000000000000E9    -7.518249650279544  -1.187126395475670E2  -1.869030120020712E1   4.015771423373084E1   1.376260947182330E1   1.281342209146809E2  -9.667089220308395E-1  -8.566263442436609E1  
 6.800000000000000E9    -7.332871940831442  -1.199581551040315E2  -1.864782798291535E1   3.953592823685278E1   1.367402011696628E1   1.275904713476282E2  -9.665279300131682E-1  -8.658980354512053E1  
 6.900000000000000E9    -7.245439262265893  -1.200757698974514E2  -1.859378536229678E1   3.895552087047688E1   1.361559295999154E1   1.270757078808719E2  -1.004861694499410  -8.750296003845935E1  
 7.000000000000000E9    -7.223604760633365  -1.222459100294796E2  -1.858282362448801E1   3.856874747113623E1   1.353861509096466E1   1.264807753880903E2  -1.007051297194472  -8.832992271743737E1  
 7.100000000000000E9    -7.242876578286652  -1.224496418985927E2  -1.850260404085854E1   3.814327587144098E1   1.347928630027201E1   1.259747817121393E2  -1.036006028286188  -8.912735491220171E1  
 7.200000000000000E9    -7.158643855427924  -1.234618907317186E2  -1.845487482972811E1   3.767177209178440E1   1.340415251461985E1   1.253742352156791E2  -1.044440915903820  -8.992876534082420E1  
 7.300000000000000E9    -7.132246950275749  -1.236179866677580E2  -1.837514028656485E1   3.716137104470447E1   1.332906639359888E1   1.248728192844514E2  -1.067754071299358  -9.075852503648366E1  
 7.400000000000000E9    -6.979609657004086  -1.244913079056977E2  -1.834875223795234E1   3.656167985070129E1   1.325140009757855E1   1.244961774775501E2  -1.082388414398440  -9.163039443175838E1  
 7.500000000000000E9    -7.010237588992735  -1.253078378793903E2  -1.831302744456797E1   3.625643970428371E1   1.321711362656634E1   1.239628787121373E2  -1.103478927337565  -9.255781627379948E1  
 7.600000000000000E9    -6.894033067106660  -1.259911337456619E2  -1.824763384894792E1   3.573359097095609E1   1.310739570231456E1   1.235288728283564E2  -1.096379728926387  -9.322727832898124E1  
 7.700000000000000E9    -6.810813602710948  -1.266376812835066E2  -1.822093787164884E1   3.529870514740964E1   1.304795834300809E1   1.231181063029164E2  -1.114814599929202  -9.408534138911176E1  
 7.800000000000000E9    -6.732941079072967  -1.269385598038238E2  -1.815312755259847E1   3.478702036356545E1   1.298708713861786E1   1.226427614712253E2  -1.130566903441241  -9.490979340056956E1  
 7.900000000000000E9    -6.662687889037057  -1.276934007578845E2  -1.815412141039753E1   3.416229848221084E1   1.293238754423745E1   1.222114864417683E2  -1.153841004737787  -9.576765861357058E1  
 8.000000000000000E9    -6.702095667950265  -1.286540543490838E2  -1.807540821452351E1   3.439934975288787E1   1.287380271609032E1   1.218448280398334E2  -1.154375325551147  -9.641753119605116E1  
 8.100000000000000E9    -6.759279417131130  -1.286550546942842E2  -1.803680687091975E1   3.346262054154544E1   1.286450178871072E1   1.214768479427613E2  -1.168228923267829  -9.725158466357243E1  
 8.200000000000000E9    -6.763331371508313  -1.299612198743327E2  -1.798729861991543E1   3.323600314019699E1   1.280934949955149E1   1.208698838131981E2  -1.189798373130441  -9.797091471051179E1  
 8.300000000000000E9    -6.688798848804705  -1.289659566646736E2  -1.791600071897232E1   3.274568905236974E1   1.275107159052051E1   1.205595886630365E2  -1.206257373303438  -9.871083884049422E1  
 8.400000000000000E9    -6.805360583281993  -1.297657325501517E2  -1.787762682837585E1   3.248110927461502E1   1.270092168047560E1   1.200296359505919E2  -1.223906518097295  -9.949688641870958E1  
 8.500000000000000E9    -6.683370266177814  -1.304970065032519E2  -1.783974761827402E1   3.196686726489345E1   1.266445519444515E1   1.195150988524562E2  -1.232867304992455  -1.003402932622259E2  
 8.600000000000000E9    -6.660208028846163  -1.302109022202596E2  -1.778811063352227E1   3.182234546204023E1   1.259863075322580E1   1.191852081995446E2  -1.238905677979880  -1.008434647080495E2  
 8.700000000000000E9    -6.687895192345832  -1.316003036303514E2  -1.774280354525204E1   3.131739665939363E1   1.254472326529816E1   1.185958234582455E2  -1.242102624714133  -1.017267947579941E2  
 8.800000000000000E9    -6.577505356984220  -1.316534796100849E2  -1.770187577041203E1   3.100070717013698E1   1.246472336658470E1   1.181566644778001E2  -1.274585246166260  -1.022890629118220E2  
 8.900000000000000E9    -6.693010390016149  -1.314698191000440E2  -1.764767158194405E1   3.065431788923589E1   1.243657430206500E1   1.177436077011628E2  -1.282942000608031  -1.030936847364781E2  
 9.000000000000000E9    -6.591091407144375  -1.333887935423665E2  -1.763071800580378E1   3.014980429316617E1   1.234524825074202E1   1.170659467727719E2  -1.298900398966361  -1.038447157250530E2  
 9.100000000000000E9    -6.537150628935131  -1.323939637605139E2  -1.758395037076121E1   2.966101916795306E1   1.229528224131913E1   1.168158481207063E2  -1.304149441254721  -1.045225953986938E2  
 9.200000000000000E9    -6.666813005836554  -1.347631776431816E2  -1.757810226622587E1   2.947246895962316E1   1.222037624318645E1   1.162109424547829E2  -1.328354520841366  -1.051819684673021E2  
 9.300000000000000E9    -6.437877015962952  -1.343657735207348E2  -1.751718589426190E1   2.903990172308547E1   1.215362355630606E1   1.158441384832325E2  -1.340078262761653  -1.058951086154435E2  
 9.400000000000000E9    -6.601253182287563  -1.341723472483087E2  -1.748989623282558E1   2.873500088008461E1   1.210791389618689E1   1.155382323878923E2  -1.353891405882942  -1.065367430792205E2  
 9.500000000000000E9    -6.435033348934948  -1.358597027060162E2  -1.747205357142169E1   2.811556070640283E1   1.203608386450613E1   1.149575911191547E2  -1.359749599381162  -1.073274481086780E2  
 9.600000000000000E9    -6.302834391235610  -1.355761883884807E2  -1.746601723654309E1   2.757559717318235E1   1.195993924515507E1   1.145053218416004E2  -1.369148447048627  -1.079894034211224E2  
 9.700000000000000E9    -6.397413413586000  -1.366536822398342E2  -1.744471845174959E1   2.735322950171817E1   1.190851925416909E1   1.141622350153584E2  -1.378272075237653  -1.086764182457103E2  
 9.800000000000000E9    -6.253182611573078  -1.375958467933437E2  -1.743768481398646E1   2.706270460175659E1   1.182497445904183E1   1.137208344687874E2  -1.392807166436684  -1.093371189269753E2  
