#  HZ   S   DB   R     50.00 
! Rohde & Schwarz ZVA50 4Ports - Version 4.11 - 1145.1110k52 SN: 100136
! Date: 2022-09-20 22:16:53
! Measurements: S11 S21 S12 S22 
! 
 1.000000000000000E8    -1.261453377265601E1   1.559113293799990  -5.205735782499489E1   9.064217889780032E1   2.060802182233022E1   1.798506387987600E2  -2.723876881180610E-2  -1.610435156985154  
 2.000000000000000E8    -1.230951861539819E1  -8.026191321297136E-1  -4.778919389579867E1   8.750560926108187E1   2.065649951176394E1   1.787690055534186E2  -1.898582072436847E-2  -3.505948066318432  
 3.000000000000000E8    -1.203164798629222E1  -3.845942026577462  -4.420036965104927E1   8.736179709801864E1   2.070718719810321E1   1.777954019258092E2  -9.787069277509665E-3  -5.224470364620737  
 4.000000000000000E8    -1.183279979931070E1  -7.377782368144228  -4.159678492179106E1   8.556198082688769E1   2.072500453738804E1   1.769271039025788E2  -1.199778901407761E-2  -6.975667119058194  
 5.000000000000000E8    -1.170503209901605E1  -1.062897435538998E1  -3.967243365249409E1   8.496783641248538E1   2.075577966264250E1   1.757872539216715E2  -2.890248548098175E-2  -8.679381761038052  
 6.000000000000000E8    -1.152462133457474E1  -1.403593675486541E1  -3.806651775004833E1   8.408700371840655E1   2.074314051870809E1   1.747352426132604E2  -3.390089974375136E-2  -1.035934114500600E1  
 7.000000000000000E8    -1.142009804981249E1  -1.728929784071524E1  -3.672920470618179E1   8.308663930191784E1   2.077412393102078E1   1.737122348228800E2  -2.642452068674894E-2  -1.214843858970945E1  
 8.000000000000000E8    -1.136374533389771E1  -2.050387678089633E1  -3.557353526667759E1   8.209424901699944E1   2.078913912712951E1   1.725090517880828E2  -3.442712992966900E-2  -1.387038200406965E1  
 9.000000000000000E8    -1.124758084880929E1  -2.361666591684402E1  -3.455489744420046E1   8.134002992241440E1   2.075835355933553E1   1.714485915986290E2  -4.165081117982032E-2  -1.554334147893119E1  
 1.000000000000000E9    -1.116311049694179E1  -2.653836443553995E1  -3.364460510409712E1   8.004850261627713E1   2.073255918898887E1   1.704016973403685E2  -5.644111287078306E-2  -1.724283615725028E1  
 1.100000000000000E9    -1.106136463139491E1  -2.939958572163251E1  -3.287155674479687E1   7.933208481586657E1   2.072817228268757E1   1.692466558116142E2  -5.699109786958959E-2  -1.895814474496786E1  
 1.200000000000000E9    -1.097833123552536E1  -3.232459275624037E1  -3.213620063716267E1   7.833086062783302E1   2.070081907851666E1   1.682273807183014E2  -6.442678367538840E-2  -2.060692240549791E1  
 1.300000000000000E9    -1.086203018497043E1  -3.502173478755212E1  -3.146895220596518E1   7.754449950407451E1   2.067657471477812E1   1.672260950233756E2  -8.335485306462105E-2  -2.227315367593826E1  
 1.400000000000000E9    -1.080043992070667E1  -3.754874231184543E1  -3.085553577054918E1   7.650307956789213E1   2.065159618863556E1   1.662103343432613E2  -9.158055564641569E-2  -2.392336052927443E1  
 1.500000000000000E9    -1.067540303428146E1  -4.045541582358871E1  -3.029601965094461E1   7.561282465096790E1   2.061024667173682E1   1.651730029539102E2  -1.003528184089401E-1  -2.561803664895071E1  
 1.600000000000000E9    -1.057601366299657E1  -4.288228345802384E1  -2.979202599181486E1   7.492808121399332E1   2.058147764284207E1   1.642010707512580E2  -1.045826150087611E-1  -2.721965688609768E1  
 1.700000000000000E9    -1.043776499402872E1  -4.563305237396720E1  -2.925687653799223E1   7.377972838263314E1   2.053079980452901E1   1.632406032604424E2  -1.216537240627726E-1  -2.893943357526073E1  
 1.800000000000000E9    -1.034874080644094E1  -4.787805225632965E1  -2.880436655757385E1   7.311610007880110E1   2.050668442382288E1   1.622321700509852E2  -1.336078470301056E-1  -3.051318481089844E1  
 1.900000000000000E9    -1.021681681874645E1  -5.043753655277759E1  -2.837306938395990E1   7.219215928060028E1   2.045755388728093E1   1.612137574494105E2  -1.491708308151683E-1  -3.222037814903680E1  
 2.000000000000000E9    -1.012945782413817E1  -5.266487356585139E1  -2.796130687454397E1   7.112573702734846E1   2.042766495089394E1   1.603570267206064E2  -1.526097825901844E-1  -3.377818291849908E1  
 2.100000000000000E9    -9.986600530552712  -5.509772171944057E1  -2.757305409490756E1   7.039093089690687E1   2.038752401965792E1   1.594103098799253E2  -1.738918485516852E-1  -3.540101066365810E1  
 2.200000000000000E9    -9.918149759132440  -5.710262781381128E1  -2.722651943290138E1   6.946455990349276E1   2.034510954942046E1   1.584530815161361E2  -1.892034316655980E-1  -3.695564380305314E1  
 2.300000000000000E9    -9.771419017220307  -5.933153520027965E1  -2.688681949729307E1   6.847627473049134E1   2.029799160458350E1   1.575068811222048E2  -2.051798570443309E-1  -3.855445752891011E1  
 2.400000000000000E9    -9.720031764466372  -6.118325101272145E1  -2.655039667575134E1   6.772701465760927E1   2.025278150809679E1   1.565583070248982E2  -2.194994242510762E-1  -4.008448226546612E1  
 2.500000000000000E9    -9.566844189388029  -6.370253232685533E1  -2.620973577333918E1   6.661654335903921E1   2.019116733236292E1   1.556588892278271E2  -2.406645964230356E-1  -4.160397062067222E1  
 2.600000000000000E9    -9.486993693502095  -6.514092715753679E1  -2.593571443080795E1   6.588465892621940E1   2.014209503534010E1   1.548421794521203E2  -2.642552470387536E-1  -4.303102468116349E1  
 2.700000000000000E9    -9.412253531903897  -6.737860912172269E1  -2.566703345419289E1   6.485692331606018E1   2.008134993804370E1   1.538091893202212E2  -2.896858009936719E-1  -4.464345376184604E1  
 2.800000000000000E9    -9.301545087542111  -6.913291056223699E1  -2.540786955080021E1   6.386633135171756E1   2.002961267614921E1   1.530521029511025E2  -3.045414557889127E-1  -4.609461754574114E1  
 2.900000000000000E9    -9.205502268743940  -7.090270028897832E1  -2.516709357296625E1   6.334617730931028E1   1.998832658914557E1   1.520961954309973E2  -3.121457208607527E-1  -4.763122107401906E1  
 3.000000000000000E9    -9.119644663303983  -7.259082867829329E1  -2.495133678173940E1   6.253193260014632E1   1.993033405360487E1   1.512829062852490E2  -3.431403041391943E-1  -4.900848883356598E1  
 3.100000000000000E9    -9.024488535666672  -7.437504921332916E1  -2.468812397454604E1   6.167996681248614E1   1.988791697257076E1   1.504697614035959E2  -3.536515488099025E-1  -5.037243386040041E1  
 3.200000000000000E9    -8.949386179051505  -7.575100066957511E1  -2.446676082518388E1   6.097034433217863E1   1.982334340915159E1   1.496014126261237E2  -3.870633168743649E-1  -5.190137353829285E1  
 3.300000000000000E9    -8.865945997109519  -7.757464672065457E1  -2.425863578656700E1   6.013954466895437E1   1.977513187426021E1   1.488181130801067E2  -3.906606107519206E-1  -5.319270964354848E1  
 3.400000000000000E9    -8.774867081671360  -7.931949809723865E1  -2.404432250225921E1   5.927302583163073E1   1.972516595065268E1   1.479420882680908E2  -4.092824264150820E-1  -5.464150544073748E1  
 3.500000000000000E9    -8.674908060679469  -8.088528792103243E1  -2.384729487979836E1   5.855234820157622E1   1.966171072108445E1   1.470504964036987E2  -4.284613143539708E-1  -5.604023060918836E1  
 3.600000000000000E9    -8.558855555407181  -8.267635085456001E1  -2.367739348612676E1   5.774883256108613E1   1.959406659128627E1   1.461993532494151E2  -4.529344578252623E-1  -5.750751372639544E1  
 3.700000000000000E9    -8.506657595587107  -8.412257514140723E1  -2.350236055211863E1   5.702375630375400E1   1.953834482841067E1   1.454077375908640E2  -4.564937840761720E-1  -5.888880331118491E1  
 3.800000000000000E9    -8.411711397516669  -8.578609255138673E1  -2.331776803468118E1   5.630082491225767E1   1.946683670718854E1   1.445541902440854E2  -4.800581681916485E-1  -6.030103249305211E1  
 3.900000000000000E9    -8.287284918701900  -8.700460454402041E1  -2.315212727368672E1   5.567612154900198E1   1.940003919570247E1   1.438556375139609E2  -5.009605106726522E-1  -6.159979991078352E1  
 4.000000000000000E9    -8.181642434325514  -8.847371234931043E1  -2.300282536151277E1   5.500222761548628E1   1.933403502125594E1   1.430138516904163E2  -5.210250606977569E-1  -6.295117244735632E1  
 4.100000000000000E9    -8.113104443975043  -8.976966331984305E1  -2.287107371919686E1   5.421539027413306E1   1.926451218025322E1   1.423949392416780E2  -5.467342114635369E-1  -6.426955090076268E1  
 4.200000000000000E9    -8.039414852130296  -9.146215516938473E1  -2.273899584359678E1   5.349523649551865E1   1.919767727293122E1   1.415862897532777E2  -5.591925081911878E-1  -6.560975019699146E1  
 4.300000000000000E9    -7.996718350188615  -9.250306008675538E1  -2.259441770743411E1   5.285686663148147E1   1.912946681729118E1   1.408801724119492E2  -5.765328025130933E-1  -6.680650931739424E1  
 4.400000000000000E9    -7.873082642989642  -9.422787505686597E1  -2.245475962533949E1   5.222506838330774E1   1.905298479709753E1   1.400779267091952E2  -5.997949820441324E-1  -6.815522693898616E1  
 4.500000000000000E9    -7.801105970160885  -9.525661941027003E1  -2.233843069555093E1   5.147885407983762E1   1.899559511535477E1   1.393887020062668E2  -6.183479052067110E-1  -6.927940946860919E1  
 4.600000000000000E9    -7.731152843589685  -9.666590261971201E1  -2.222308543418162E1   5.075995515855875E1   1.891834550096867E1   1.386498901185862E2  -6.478037205425654E-1  -7.056444611770453E1  
 4.700000000000000E9    -7.681198387546792  -9.775454631718390E1  -2.209116465479576E1   5.028881652851455E1   1.885340801303419E1   1.379914418908010E2  -6.632248880158601E-1  -7.174096100890780E1  
 4.800000000000000E9    -7.548382230163560  -9.888215682736097E1  -2.197576520767127E1   4.965915402937466E1   1.877513306079310E1   1.373304844116786E2  -6.808992023754314E-1  -7.286256226196686E1  
 4.900000000000000E9    -7.529257978354726  -9.982445902614148E1  -2.187443927039446E1   4.908444728428630E1   1.870825279927170E1   1.366687539198061E2  -7.022441837274586E-1  -7.406698075848732E1  
 5.000000000000000E9    -7.464395151738974  -1.010066800094084E2  -2.175697762106734E1   4.836858678495185E1   1.864703936794587E1   1.359464811442383E2  -7.238444194594048E-1  -7.523218422559005E1  
 5.100000000000000E9    -7.407221414656270  -1.017956368067476E2  -2.166451773772364E1   4.768302845779820E1   1.856784075704681E1   1.353619757119290E2  -7.500509786147137E-1  -7.631541033063964E1  
 5.200000000000000E9    -7.365882010923968  -1.030530950403326E2  -2.156134573214030E1   4.702110360594431E1   1.850489078914804E1   1.346960402274269E2  -7.489536249242913E-1  -7.743579698660882E1  
 5.300000000000000E9    -7.294900057396230  -1.040894927921127E2  -2.146073480618401E1   4.648165283236262E1   1.842769959903232E1   1.340749925521988E2  -7.744272434525531E-1  -7.854055366608928E1  
 5.400000000000000E9    -7.259957502590945  -1.050788691489238E2  -2.136430904696413E1   4.589153926730152E1   1.836353886403061E1   1.334761023835419E2  -7.889436158053158E-1  -7.961605945365605E1  
 5.500000000000000E9    -7.232831752384646  -1.065073973949059E2  -2.128910063244910E1   4.517367851826377E1   1.829182787423293E1   1.327776407052751E2  -8.214559323523833E-1  -8.075310675475322E1  
 5.600000000000000E9    -7.109011243110711  -1.068205479382503E2  -2.120964182818107E1   4.472089108148176E1   1.822255323692968E1   1.322316159469143E2  -8.480166126004372E-1  -8.176775925175805E1  
 5.700000000000000E9    -7.153769327417177  -1.080848243567250E2  -2.111924463314819E1   4.413465140436816E1   1.815654267575503E1   1.316263038287832E2  -8.529323331367126E-1  -8.282186634591524E1  
 5.800000000000000E9    -6.972268994760578  -1.089441365597995E2  -2.103249240448298E1   4.355253648323210E1   1.808559511634194E1   1.310588408935945E2  -8.716155146810790E-1  -8.382414805482209E1  
 5.900000000000000E9    -7.010624800949772  -1.095489179800630E2  -2.096231036062308E1   4.296226805389717E1   1.802195524842472E1   1.304430340293398E2  -8.875221642334761E-1  -8.485022218570946E1  
 6.000000000000000E9    -6.929729961067827  -1.107763604860530E2  -2.088030541581997E1   4.251385999706184E1   1.794190152984538E1   1.298647334337520E2  -9.145501219184462E-1  -8.589287966038049E1  
 6.100000000000000E9    -6.914632261890251  -1.113879355171460E2  -2.080587283147747E1   4.197079580392771E1   1.787202395817024E1   1.293091348756469E2  -9.196876155257617E-1  -8.685219854771275E1  
 6.200000000000000E9    -6.889964719197964  -1.122869618380431E2  -2.072437108439281E1   4.143877026092098E1   1.780014374347650E1   1.287508795390203E2  -9.407426413824094E-1  -8.777793896711130E1  
 6.300000000000000E9    -6.829899239279719  -1.135632507341249E2  -2.065526523083164E1   4.086157426977072E1   1.772457873739869E1   1.281997851768257E2  -9.552762282307578E-1  -8.884246234077388E1  
 6.400000000000000E9    -6.768994480295144  -1.137540393945026E2  -2.058802758302845E1   4.031188838087547E1   1.765778935026743E1   1.277394271353149E2  -9.799047239474493E-1  -8.970120704136416E1  
 6.500000000000000E9    -6.821149648349668  -1.150780451833598E2  -2.052367129049335E1   3.981780330847189E1   1.759093008896530E1   1.271346954956047E2  -9.894468258743946E-1  -9.075083999863470E1  
 6.600000000000000E9    -6.666832318727796  -1.158536360182839E2  -2.046886578992702E1   3.933147609748784E1   1.751926102784368E1   1.265687301097071E2  -1.001589728333068  -9.165438401142201E1  
 6.700000000000000E9    -6.724079904985760  -1.162528815444011E2  -2.039985167373959E1   3.893563008391360E1   1.745331428351981E1   1.260078393619045E2  -1.021828297196697  -9.265509013543357E1  
 6.800000000000000E9    -6.586085774856414  -1.176314440307234E2  -2.036088998970093E1   3.833016276287833E1   1.737681159961094E1   1.254133350823109E2  -1.032447420254071  -9.367117382943866E1  
 6.900000000000000E9    -6.553874337317457  -1.178023548262475E2  -2.030824815857675E1   3.783716606531100E1   1.730800004308160E1   1.249204212208524E2  -1.063554619295274  -9.460674182148836E1  
 7.000000000000000E9    -6.518810412346987  -1.193380954079398E2  -2.025241741161787E1   3.737045291892274E1   1.723465363238967E1   1.243978027780307E2  -1.061816397389854  -9.546054456141137E1  
 7.100000000000000E9    -6.503269806588026  -1.198099530943385E2  -2.020524080879897E1   3.695344479390064E1   1.716509645720031E1   1.239221324849860E2  -1.078952349600038  -9.624052702505377E1  
 7.200000000000000E9    -6.447790777820028  -1.207015795579096E2  -2.015287066380137E1   3.647920363189788E1   1.709177841339379E1   1.234387932615678E2  -1.095998744714106  -9.708455907877132E1  
 7.300000000000000E9    -6.438723599964981  -1.212334068991153E2  -2.009822684654383E1   3.602342854111735E1   1.701471527455098E1   1.229148203406569E2  -1.128011000276086  -9.796641569098152E1  
 7.400000000000000E9    -6.348533697303497  -1.220265065115222E2  -2.006166007503417E1   3.556009960646007E1   1.693665880491480E1   1.224710415719710E2  -1.141331282125704  -9.889656966572582E1  
 7.500000000000000E9    -6.368221174992488  -1.226287629115691E2  -2.001307779128446E1   3.511669847663942E1   1.687486500278417E1   1.220529339553287E2  -1.152702615603117  -9.968725172445063E1  
 7.600000000000000E9    -6.292306183683488  -1.235705933547836E2  -1.996776596917785E1   3.483627782392286E1   1.679747890893486E1   1.215132654497475E2  -1.166720933272881  -1.005115662701633E2  
 7.700000000000000E9    -6.235837234631356  -1.242149474508757E2  -1.992406808665296E1   3.427551113286868E1   1.672422843101802E1   1.211025598708451E2  -1.180885146830719  -1.013403548554641E2  
 7.800000000000000E9    -6.151068891230737  -1.247487963780733E2  -1.988788476471509E1   3.387946591561891E1   1.666113301071486E1   1.206553067328096E2  -1.191910023207421  -1.021970266567597E2  
 7.900000000000000E9    -6.200798803525966  -1.252107362452061E2  -1.984652680825409E1   3.355494003752715E1   1.659225567540455E1   1.201486513812645E2  -1.214850175185836  -1.030317054334301E2  
 8.000000000000000E9    -6.111074351119245  -1.258655706473457E2  -1.976402047121608E1   3.339735375647091E1   1.651737278348922E1   1.197552049892291E2  -1.227195274627291  -1.036355074155361E2  
 8.100000000000000E9    -6.209664608322514  -1.257118113863133E2  -1.971837691193263E1   3.255306594579753E1   1.647015619424886E1   1.195921852274330E2  -1.216880843763925  -1.042657335714633E2  
 8.200000000000000E9    -6.132296572586975  -1.272774601087515E2  -1.971039209242534E1   3.217209125408092E1   1.640794470233452E1   1.190678507388258E2  -1.242816508890890  -1.049887935596984E2  
 8.300000000000000E9    -6.081363144345579  -1.266725758789546E2  -1.966440891086844E1   3.181744876079498E1   1.634016546267979E1   1.187099555709980E2  -1.271570685838328  -1.057246700277179E2  
 8.400000000000000E9    -6.187132181502754  -1.276707807166675E2  -1.962939045403743E1   3.139991853928937E1   1.628456698258527E1   1.182638979845014E2  -1.272547885458451  -1.064547582630501E2  
 8.500000000000000E9    -6.075571464136446  -1.284016784533563E2  -1.959116270134475E1   3.105913684737354E1   1.622157327898712E1   1.178676995140784E2  -1.277967900459654  -1.071967382727587E2  
 8.600000000000000E9    -6.040831408733967  -1.281811493220660E2  -1.955491336316539E1   3.067376190238182E1   1.615319664228495E1   1.175116855197756E2  -1.290519780359400  -1.077442337291369E2  
 8.700000000000000E9    -6.060090280213859  -1.295990197754431E2  -1.950856717246077E1   3.026529437367503E1   1.609361751330404E1   1.169856621471548E2  -1.285800688708991  -1.085819750077486E2  
 8.800000000000000E9    -5.907895206838849  -1.298896736617531E2  -1.948726121638083E1   2.994218820273451E1   1.602055379950285E1   1.165763222275536E2  -1.320065836671092  -1.092160107323434E2  
 8.900000000000000E9    -6.067371310977617  -1.298624505148687E2  -1.944478501486175E1   2.972178880290565E1   1.597325374775332E1   1.161582592034118E2  -1.327865966142767  -1.099465165777162E2  
 9.000000000000000E9    -5.972555981084526  -1.318567007651737E2  -1.941639262965126E1   2.916763941649212E1   1.589710599841858E1   1.155773918396670E2  -1.323154904805002  -1.107483905541963E2  
 9.100000000000000E9    -5.967360263723563  -1.308521426286766E2  -1.938248179712021E1   2.887726673411969E1   1.585877521771968E1   1.152099971907707E2  -1.322354100903992  -1.114238281554248E2  
 9.200000000000000E9    -6.042091208053907  -1.332401563684791E2  -1.935973286523606E1   2.844408609361332E1   1.577299333026926E1   1.146716738084891E2  -1.337959390067891  -1.121920816344914E2  
 9.300000000000000E9    -5.798635144557388  -1.330893529563722E2  -1.933542181418375E1   2.798553278553179E1   1.570976750869760E1   1.142875219446081E2  -1.373014337227531  -1.128252927986574E2  
 9.400000000000000E9    -6.000588994980297  -1.330780068595083E2  -1.931862943219518E1   2.771343293668063E1   1.565363076453408E1   1.139782131659090E2  -1.377629966205645  -1.134570952455520E2  
 9.500000000000000E9    -5.903441734113962  -1.347878081803533E2  -1.929653083716210E1   2.737751149515482E1   1.558583605185194E1   1.134783628211839E2  -1.378211587728032  -1.143611911321644E2  
 9.600000000000000E9    -5.820160129707246  -1.343034037929350E2  -1.927051452979244E1   2.697613219240086E1   1.550852999025556E1   1.130484002607588E2  -1.383547679975501  -1.150210727998323E2  
 9.700000000000000E9    -5.912831065638081  -1.352770834664195E2  -1.924770343337711E1   2.670912763092661E1   1.544630678608557E1   1.127627088034724E2  -1.394406600270254  -1.156229229950464E2  
 9.800000000000000E9    -5.760113007111433  -1.362102143315776E2  -1.923461030830479E1   2.631462203622438E1   1.536129481788963E1   1.123465918807249E2  -1.414108834084574  -1.163116296036094E2  
 9.900000000000000E9    -5.771038397879783  -1.357577063706725E2  -1.921271188499179E1   2.600504197199433E1   1.530586211946492E1   1.119678487893003E2  -1.422266810819470  -1.167927441481869E2  
