#  HZ   S   DB   R     50.00 
! Rohde & Schwarz ZVA50 4Ports - Version 4.11 - 1145.1110k52 SN: 100136
! Date: 2022-09-20 22:14:13
! Measurements: S11 S21 S12 S22 
! 
 1.000000000000000E8    -1.160178448784576E1  -2.268401688921211  -5.073296513659722E1   9.088312775247465E1   1.977984661762534E1   1.790100946059586E2  -2.081002066619924E-2  -1.705462425139591  
 2.000000000000000E8    -1.156602899225917E1  -5.727468448909445  -4.690018883788312E1   8.820351470069349E1   1.978027368908208E1   1.780784297290834E2  -7.472311536954748E-3  -3.301165687634196  
 3.000000000000000E8    -1.148900872120620E1  -8.422933414346341  -4.352751760534557E1   8.659501787901310E1   1.975176510216037E1   1.770129160438599E2  -2.246454336683877E-2  -5.016484700572739  
 4.000000000000000E8    -1.145969977342497E1  -1.107016428831038E1  -4.095383150083364E1   8.538136668211146E1   1.974010731280766E1   1.759992050713126E2  -2.280303672221809E-2  -6.728674533230830  
 5.000000000000000E8    -1.140196068798653E1  -1.410000489507870E1  -3.912385317468664E1   8.508203812793667E1   1.973224336421525E1   1.749841576588905E2  -3.247099102152926E-2  -8.402619244828555  
 6.000000000000000E8    -1.134890642173225E1  -1.706737988721540E1  -3.744296643095325E1   8.403379495684344E1   1.972051523604489E1   1.740087120495933E2  -2.510231547011038E-2  -1.001959264134531E1  
 7.000000000000000E8    -1.135563188722324E1  -1.977743487439852E1  -3.614917150772600E1   8.305677993174703E1   1.971674170008032E1   1.730251364954248E2  -3.610518146117669E-2  -1.170537712481659E1  
 8.000000000000000E8    -1.132906126149117E1  -2.272551014182022E1  -3.500901963407819E1   8.215057804914274E1   1.970473883205347E1   1.719959857004213E2  -4.283253655097880E-2  -1.328014354090110E1  
 9.000000000000000E8    -1.121695840678984E1  -2.547723432833561E1  -3.402751231580615E1   8.103215061056284E1   1.968263864845408E1   1.710266157630746E2  -4.896959210539489E-2  -1.494755139247364E1  
 1.000000000000000E9    -1.115491352018822E1  -2.813621684355019E1  -3.313890818653723E1   8.022150164908457E1   1.966412545236100E1   1.700288322206176E2  -5.422476277754743E-2  -1.658101493930147E1  
 1.100000000000000E9    -1.111208241097626E1  -3.081790604549351E1  -3.234110220647614E1   7.924163867553975E1   1.964361242241412E1   1.690679862912767E2  -6.618525348037749E-2  -1.821005436721551E1  
 1.200000000000000E9    -1.102829805095757E1  -3.346176950345420E1  -3.159487916125185E1   7.831237417608703E1   1.962421500916793E1   1.680808992710871E2  -7.162690610770128E-2  -1.979036901117037E1  
 1.300000000000000E9    -1.094318766036009E1  -3.594999056238655E1  -3.091877646387187E1   7.754003472466474E1   1.960051641703372E1   1.671520249914435E2  -8.398940872583480E-2  -2.140839412780541E1  
 1.400000000000000E9    -1.088491677937033E1  -3.842615502337839E1  -3.030735710420421E1   7.657772726580892E1   1.956862225081360E1   1.661844350581978E2  -9.025970606226830E-2  -2.301822185504469E1  
 1.500000000000000E9    -1.077565967957984E1  -4.111464848275714E1  -2.976059093278267E1   7.572582979555318E1   1.953989820112157E1   1.652387682032974E2  -1.022581170504164E-1  -2.458043483520854E1  
 1.600000000000000E9    -1.066201378762929E1  -4.338144273040162E1  -2.922390836685139E1   7.506596756524624E1   1.950093815590935E1   1.642937456975168E2  -1.180760688232615E-1  -2.618851110007955E1  
 1.700000000000000E9    -1.054800333849969E1  -4.589569190204681E1  -2.872845444453578E1   7.406926750632806E1   1.946437232223422E1   1.633715316347652E2  -1.195718463971095E-1  -2.779001982061664E1  
 1.800000000000000E9    -1.048453070522032E1  -4.805879344941653E1  -2.826925312035773E1   7.315825503921826E1   1.943278453905302E1   1.623460522103798E2  -1.396220489980543E-1  -2.933716068347927E1  
 1.900000000000000E9    -1.035079299892589E1  -5.058800405941540E1  -2.782914675946352E1   7.229115261905913E1   1.939269922478423E1   1.614066347703354E2  -1.470462173044357E-1  -3.095183890456165E1  
 2.000000000000000E9    -1.028154944518695E1  -5.253084216559321E1  -2.742757494001495E1   7.143175729134657E1   1.935033536450877E1   1.605536442178086E2  -1.643936421813969E-1  -3.245834341820376E1  
 2.100000000000000E9    -1.013724960226284E1  -5.485517589728072E1  -2.704330792058973E1   7.065192325373154E1   1.931701140462307E1   1.596295337908209E2  -1.753552290194134E-1  -3.400937870865504E1  
 2.200000000000000E9    -1.005338988599766E1  -5.684154210960721E1  -2.667448232465803E1   6.982571880043629E1   1.927951475833982E1   1.587370183970742E2  -1.858270934223635E-1  -3.547892969106484E1  
 2.300000000000000E9    -9.922855085337439  -5.895995442025129E1  -2.631938958551215E1   6.880061604905160E1   1.923330469317753E1   1.578380831794974E2  -2.027361356756231E-1  -3.704891017003607E1  
 2.400000000000000E9    -9.856131348236881  -6.074510328807295E1  -2.599824367099981E1   6.800800894678663E1   1.918679530390888E1   1.569155263594939E2  -2.213046788499040E-1  -3.854894746161479E1  
 2.500000000000000E9    -9.735612394080729  -6.310395068040808E1  -2.567294131510241E1   6.711639256285103E1   1.913444049360682E1   1.560079896250470E2  -2.370595390281054E-1  -4.008165834747474E1  
 2.600000000000000E9    -9.646966869884206  -6.465764004552415E1  -2.539135790661184E1   6.623131937499453E1   1.908115282194732E1   1.552147552862101E2  -2.668977100803964E-1  -4.144481009482237E1  
 2.700000000000000E9    -9.568415898232024  -6.680093846269935E1  -2.511062938502992E1   6.533753905459551E1   1.902896786890732E1   1.543024703930610E2  -2.893437623964878E-1  -4.291926964922554E1  
 2.800000000000000E9    -9.472892957383865  -6.845097037378184E1  -2.485231539835770E1   6.463627910396137E1   1.897861090932129E1   1.534786655697212E2  -3.098001002006175E-1  -4.437097262640577E1  
 2.900000000000000E9    -9.375574574947251  -7.016144657614024E1  -2.460409838992877E1   6.373513002020587E1   1.893589063600966E1   1.526563527907303E2  -3.190036066450346E-1  -4.573253540015179E1  
 3.000000000000000E9    -9.308595230796255  -7.186405113793238E1  -2.435598541526187E1   6.293913870497914E1   1.889044423683273E1   1.517823784317537E2  -3.388036902890684E-1  -4.717840454747180E1  
 3.100000000000000E9    -9.205280559798833  -7.358379800915274E1  -2.412582826131045E1   6.223529584286894E1   1.883853384718327E1   1.509282693054371E2  -3.705949194447180E-1  -4.857461404237467E1  
 3.200000000000000E9    -9.122450306705439  -7.497424988659309E1  -2.391389652316861E1   6.147396214428762E1   1.879306974370887E1   1.501282354690370E2  -3.867368458596267E-1  -4.997566106021399E1  
 3.300000000000000E9    -9.061658878834397  -7.674040180909547E1  -2.369313483403775E1   6.063969442667641E1   1.873431138257390E1   1.493201750250876E2  -3.983098047591693E-1  -5.125744410220740E1  
 3.400000000000000E9    -8.947885362844207  -7.841856211230490E1  -2.346561309306602E1   5.980836788062410E1   1.868158815224352E1   1.484870704655961E2  -4.240911377449180E-1  -5.273487762345276E1  
 3.500000000000000E9    -8.875377510583352  -8.005965098173508E1  -2.326753272335786E1   5.910147613911680E1   1.862844937397780E1   1.476365162436791E2  -4.221566004065781E-1  -5.409359096568844E1  
 3.600000000000000E9    -8.739053584520590  -8.161452354394784E1  -2.308654996568997E1   5.832081889403214E1   1.856680330834822E1   1.467662990541644E2  -4.434808820115674E-1  -5.551259221705513E1  
 3.700000000000000E9    -8.686243344006092  -8.302501694203070E1  -2.291778716576761E1   5.757124937675761E1   1.851058518263288E1   1.460064544778396E2  -4.612232311245726E-1  -5.688002801726804E1  
 3.800000000000000E9    -8.570816996208334  -8.480085229513307E1  -2.273366932710279E1   5.682517656894819E1   1.843923136877880E1   1.452564890615460E2  -4.809562767460866E-1  -5.825283471231595E1  
 3.900000000000000E9    -8.466701064824601  -8.591690492707572E1  -2.256140571560440E1   5.625862553609933E1   1.838749155574973E1   1.445209874756265E2  -4.957513154345625E-1  -5.946385002082647E1  
 4.000000000000000E9    -8.362165082223330  -8.734017177258316E1  -2.238973644896831E1   5.558299710236388E1   1.832566019691850E1   1.437440062137739E2  -5.122301792378786E-1  -6.078652587089464E1  
 4.100000000000000E9    -8.290428982401345  -8.856760959854414E1  -2.225834665592961E1   5.480020670313858E1   1.825689085693412E1   1.430722241640677E2  -5.419815957357725E-1  -6.203868286760570E1  
 4.200000000000000E9    -8.223621890337824  -9.019612999851941E1  -2.212643114017986E1   5.413961550031912E1   1.819454576059821E1   1.423304039467406E2  -5.535239208741611E-1  -6.335596478237770E1  
 4.300000000000000E9    -8.175681844216394  -9.121973595868197E1  -2.198767867899495E1   5.346098717324630E1   1.812839529994258E1   1.416194040863785E2  -5.756752631334172E-1  -6.454730125614800E1  
 4.400000000000000E9    -8.068530902870045  -9.306595456964726E1  -2.184143176690121E1   5.274939640774120E1   1.805879015376697E1   1.408497263401308E2  -5.927468615416678E-1  -6.582985613229114E1  
 4.500000000000000E9    -7.985763045411100  -9.398848054497796E1  -2.170498916259160E1   5.210551728474936E1   1.799914169988107E1   1.401716383262840E2  -6.170655632321935E-1  -6.694889072278544E1  
 4.600000000000000E9    -7.908681922842864  -9.538867980978986E1  -2.160098839189268E1   5.148011337372655E1   1.792984168569256E1   1.394316321205092E2  -6.365111648536528E-1  -6.823011953185826E1  
 4.700000000000000E9    -7.875188511361398  -9.650258418830978E1  -2.147762773566871E1   5.087406400669910E1   1.786630350475292E1   1.387715571524814E2  -6.556401929411740E-1  -6.936364662751635E1  
 4.800000000000000E9    -7.743534646045965  -9.767004394753433E1  -2.135402205570214E1   5.032832474257822E1   1.780019063527627E1   1.380884695417153E2  -6.771013114488996E-1  -7.049066644837761E1  
 4.900000000000000E9    -7.723811137053375  -9.862172581903946E1  -2.124535342901687E1   4.970410842321370E1   1.774118508758012E1   1.374424551609897E2  -6.973253501242605E-1  -7.164481669520450E1  
 5.000000000000000E9    -7.650274572878573  -9.980591308867138E1  -2.113892872703503E1   4.905618267827247E1   1.767655523030552E1   1.367296369427724E2  -7.211933875199892E-1  -7.280930221700498E1  
 5.100000000000000E9    -7.597088057702232  -1.004648462417132E2  -2.101709769967513E1   4.833079601599410E1   1.760753206802303E1   1.360920143062229E2  -7.384009348698091E-1  -7.389340315783008E1  
 5.200000000000000E9    -7.560327224550949  -1.018826339751789E2  -2.092750441102080E1   4.765648135219676E1   1.753324243320105E1   1.354432488989867E2  -7.557276139755313E-1  -7.503529385029351E1  
 5.300000000000000E9    -7.501954554870607  -1.029521971538667E2  -2.083048257947593E1   4.705817528807452E1   1.747264849452757E1   1.348142251587086E2  -7.812138294025399E-1  -7.612239185737819E1  
 5.400000000000000E9    -7.443433818030423  -1.038621866918624E2  -2.072400811220484E1   4.647862079647246E1   1.740871980262159E1   1.341714370406308E2  -7.900360660213220E-1  -7.717032966495812E1  
 5.500000000000000E9    -7.415254460313814  -1.051676817906250E2  -2.063672596377229E1   4.584076249187302E1   1.734192845511520E1   1.335186803648984E2  -8.146444298983648E-1  -7.831289682900518E1  
 5.600000000000000E9    -7.304840609859930  -1.056562427041558E2  -2.056381734818091E1   4.530797955169583E1   1.727101178060099E1   1.329445409464364E2  -8.457759679090808E-1  -7.933392191933305E1  
 5.700000000000000E9    -7.328317589373920  -1.069132294197779E2  -2.046174259570913E1   4.476838015434590E1   1.720965627970589E1   1.323521530335702E2  -8.466414900580415E-1  -8.035984749449199E1  
 5.800000000000000E9    -7.169160211157644  -1.077578389864537E2  -2.038081599154497E1   4.419419127053029E1   1.713533366178734E1   1.317399452576588E2  -8.821891274282844E-1  -8.142760316021985E1  
 5.900000000000000E9    -7.198780759301465  -1.083225465012993E2  -2.030207062855865E1   4.362226267453691E1   1.707925713565336E1   1.311781963621648E2  -8.918235268638848E-1  -8.235460271525912E1  
 6.000000000000000E9    -7.116309499573072  -1.096252153054804E2  -2.022228368664494E1   4.305650635413024E1   1.700172916138896E1   1.305989542389134E2  -9.182328309731171E-1  -8.338337358143373E1  
 6.100000000000000E9    -7.088239473842666  -1.102945946853756E2  -2.015358550010663E1   4.256309963178441E1   1.693377420203617E1   1.300503916973855E2  -9.270515555181269E-1  -8.434750320786479E1  
 6.200000000000000E9    -7.072508002711929  -1.111397206390402E2  -2.007210916599733E1   4.208086476866437E1   1.686536392414883E1   1.294518597714220E2  -9.433797971075297E-1  -8.530059782200905E1  
 6.300000000000000E9    -7.019972265145663  -1.122720024831819E2  -2.000352735268303E1   4.151270457799451E1   1.679638698664714E1   1.288954879686224E2  -9.564629319586044E-1  -8.639170269190818E1  
 6.400000000000000E9    -6.934069827420905  -1.126658157132183E2  -1.992464647195089E1   4.092897607382178E1   1.673442004952607E1   1.284161105872310E2  -9.838762353215309E-1  -8.723754828205158E1  
 6.500000000000000E9    -6.996885214488098  -1.138602122766211E2  -1.986698623110168E1   4.042631854822769E1   1.665763034989606E1   1.278291323339497E2  -9.981974219369799E-1  -8.826161416135795E1  
 6.600000000000000E9    -6.840278519081347  -1.146879740773301E2  -1.980709571346323E1   3.992021229748693E1   1.658997058225717E1   1.272761277149009E2  -1.012021429181145  -8.917934177660077E1  
 6.700000000000000E9    -6.896861949997627  -1.151477945541082E2  -1.973597885606158E1   3.943692958731104E1   1.652439878340267E1   1.267331934927201E2  -1.029990606602611  -9.012249378115874E1  
 6.800000000000000E9    -6.759882625254200  -1.163232665699245E2  -1.967106214117231E1   3.900546729462158E1   1.645052734867770E1   1.261512546409642E2  -1.041393851967094  -9.109162906782449E1  
 6.900000000000000E9    -6.722209407004519  -1.165165244020409E2  -1.961841546771042E1   3.845002744297297E1   1.638382399929470E1   1.256896961484739E2  -1.074201922245331  -9.195681956896132E1  
 7.000000000000000E9    -6.700093751519505  -1.179977403850128E2  -1.957818116334337E1   3.791523819886138E1   1.631063632677953E1   1.251917279041868E2  -1.073964602581651  -9.280476576877298E1  
 7.100000000000000E9    -6.670425898343136  -1.185203968432268E2  -1.952256152551482E1   3.743204711896010E1   1.624350706798743E1   1.246448683928432E2  -1.099597960510150  -9.368194165989685E1  
 7.200000000000000E9    -6.620595446204448  -1.194395358610165E2  -1.946171347456931E1   3.710491636632727E1   1.617673678791394E1   1.241893001991174E2  -1.102816457960985  -9.449091068453551E1  
 7.300000000000000E9    -6.602842379942302  -1.199910602551403E2  -1.940896899626713E1   3.657059186727662E1   1.611100129764815E1   1.236478541220893E2  -1.131203803606573  -9.536441582023625E1  
 7.400000000000000E9    -6.510850318432013  -1.207826304015998E2  -1.936611445028347E1   3.618574381288730E1   1.603213685116563E1   1.231900152258094E2  -1.152822844496661  -9.632601631797132E1  
 7.500000000000000E9    -6.535472768224510  -1.213938749608388E2  -1.932498537070644E1   3.575065455641398E1   1.596812407996548E1   1.227286551437835E2  -1.163339258222327  -9.712951441156844E1  
 7.600000000000000E9    -6.461341534857056  -1.223815534195755E2  -1.928708290991011E1   3.532428125895365E1   1.589933609163633E1   1.222175263942334E2  -1.172166436955993  -9.792404458299177E1  
 7.700000000000000E9    -6.408869379813264  -1.230658235543928E2  -1.923929554163609E1   3.487521849043280E1   1.583549644680731E1   1.217471050528237E2  -1.191232840344319  -9.880803481590002E1  
 7.800000000000000E9    -6.323765946876146  -1.236277422565010E2  -1.917861249426583E1   3.442297262998987E1   1.577528334838340E1   1.212762185703619E2  -1.205576113171053  -9.968770317693728E1  
 7.900000000000000E9    -6.345806032893010  -1.241242889136779E2  -1.916467196154540E1   3.402853120293572E1   1.569667750824935E1   1.208178706136823E2  -1.231234872813334  -1.004965558158238E2  
 8.000000000000000E9    -6.281053287988428  -1.247632715638959E2  -1.908554295461585E1   3.393766471675854E1   1.563948885160250E1   1.204255854594081E2  -1.232621220455759  -1.011382102186038E2  
 8.100000000000000E9    -6.366466819373652  -1.246811304932272E2  -1.903180805372230E1   3.302594699821729E1   1.558121222599925E1   1.201775390023137E2  -1.237885334383756  -1.017709974839135E2  
 8.200000000000000E9    -6.291582898767130  -1.260916862149653E2  -1.900766646231747E1   3.260864478732468E1   1.552107957984228E1   1.196384838175528E2  -1.262995376605867  -1.025173043136950E2  
 8.300000000000000E9    -6.246182412813926  -1.255535246110950E2  -1.895235471334093E1   3.234574364162714E1   1.546709198472805E1   1.192006031967149E2  -1.275581686671907  -1.032827518138683E2  
 8.400000000000000E9    -6.331669390819054  -1.264859808713815E2  -1.892762600446921E1   3.195054671044632E1   1.540256218981665E1   1.188328586593523E2  -1.289989042995006  -1.039185473931556E2  
 8.500000000000000E9    -6.237633029244035  -1.272723753790537E2  -1.889238254936480E1   3.150721816423863E1   1.533349327725346E1   1.183703819317596E2  -1.303466864212160  -1.047358504885727E2  
 8.600000000000000E9    -6.184001497525490  -1.270752312171650E2  -1.883850710977354E1   3.122831367263030E1   1.527616711873761E1   1.180026281529718E2  -1.317434168739665  -1.052591643460207E2  
 8.700000000000000E9    -6.211072931834775  -1.283514904415347E2  -1.879439207367337E1   3.084505676844210E1   1.521956038217008E1   1.174878999316387E2  -1.308489521463133  -1.061007134850857E2  
 8.800000000000000E9    -6.069190810273376  -1.287384983574137E2  -1.877563494342619E1   3.047688423312133E1   1.515063821879653E1   1.170772068722929E2  -1.341933846912434  -1.067454376066695E2  
 8.900000000000000E9    -6.209454742827943  -1.287555979471839E2  -1.872918559462249E1   3.016460222178235E1   1.509398822589953E1   1.166618804847549E2  -1.357096700779595  -1.074702760810770E2  
 9.000000000000000E9    -6.127056228197318  -1.306670657160032E2  -1.870917358459412E1   2.962306523212364E1   1.502648333415026E1   1.160566528010525E2  -1.344741347391014  -1.082872722300638E2  
 9.100000000000000E9    -6.113381125386026  -1.298278337327002E2  -1.866229489065136E1   2.924513408303390E1   1.497724860310032E1   1.157357959841264E2  -1.355685024825050  -1.089442478956794E2  
 9.200000000000000E9    -6.185099906897582  -1.320136845163902E2  -1.864278093561314E1   2.893709739126874E1   1.489800127960391E1   1.152403671072987E2  -1.367861954316060  -1.097020228152807E2  
 9.300000000000000E9    -5.968200376200835  -1.320170320837206E2  -1.861319748277711E1   2.852687958909598E1   1.483620608031639E1   1.148574564565545E2  -1.399878633670189  -1.103602224935978E2  
 9.400000000000000E9    -6.134799922523109  -1.318666801758556E2  -1.858970595715811E1   2.829890401416993E1   1.477902606083663E1   1.145185635274921E2  -1.410374615129694  -1.110061292316097E2  
 9.500000000000000E9    -6.039914700612184  -1.336152880563062E2  -1.856433261357467E1   2.783924109124047E1   1.471085173283250E1   1.140709408530692E2  -1.403808252560289  -1.118425537293576E2  
 9.600000000000000E9    -5.949400972888338  -1.330900624418208E2  -1.854129248919098E1   2.739363802346718E1   1.464601910030771E1   1.136282221180544E2  -1.420206481866027  -1.124910054235851E2  
 9.700000000000000E9    -6.049358281037228  -1.341689670375092E2  -1.853067282631357E1   2.710726727877722E1   1.458628215245841E1   1.132376420382078E2  -1.427502580114316  -1.131371272426147E2  
 9.800000000000000E9    -5.904391897707018  -1.350649618631738E2  -1.850852674689763E1   2.677185839687392E1   1.450539093856109E1   1.128731864342611E2  -1.437385351487550  -1.138408273298836E2  
 9.900000000000000E9    -5.935434571147807  -1.347417830306640E2  -1.848757377493752E1   2.646609040986470E1   1.444823903998103E1   1.125370128473488E2  -1.451962966620817  -1.143050981834494E2  
