#  HZ   S   DB   R     50.00 
! Rohde & Schwarz ZVA50 4Ports - Version 4.11 - 1145.1110k52 SN: 100136
! Date: 2022-09-20 22:17:49
! Measurements: S11 S21 S12 S22 
! 
 1.000000000000000E8    -1.450842909773503E1   7.404955452150753  -5.471620806052135E1   9.285842120668791E1   2.065104178457673E1  -1.799301359938262E2  -2.568988063471702E-2  -1.961145575805221  
 2.000000000000000E8    -1.374576511254629E1   4.913323594664074  -4.813605986114906E1   8.728754912714987E1   2.074054952789879E1   1.794291551245845E2  -1.896075788754593E-2  -3.528502293875179  
 3.000000000000000E8    -1.304777951631471E1   1.964834522850017  -4.469730158549678E1   8.555898973617690E1   2.083286319531113E1   1.785175208195411E2  -2.209778627523171E-2  -5.258133752820894  
 4.000000000000000E8    -1.258103355063918E1  -2.335338746535848  -4.174612447363416E1   8.548367257071843E1   2.088628019840979E1   1.774842921835057E2  -1.691864889682913E-2  -7.056578361364319  
 5.000000000000000E8    -1.227257047978997E1  -6.046663443783023  -3.983790374626602E1   8.512596858962569E1   2.094322448562115E1   1.763515821417737E2  -1.128661529100778E-2  -8.759465784793687  
 6.000000000000000E8    -1.206113762277807E1  -9.915585658602405  -3.829624668180014E1   8.440832715728590E1   2.095330829120679E1   1.752186533610050E2  -1.489825873117851E-2  -1.043713310994301E1  
 7.000000000000000E8    -1.187833076806900E1  -1.378380931893127E1  -3.693653065333320E1   8.356426123487208E1   2.096287793316895E1   1.741869640686703E2  -3.300825687250331E-2  -1.219942974203640E1  
 8.000000000000000E8    -1.174064916216130E1  -1.744765720880640E1  -3.576891556363735E1   8.264072241233690E1   2.098390065235775E1   1.729602202094416E2  -3.490852685917451E-2  -1.391638041757674E1  
 9.000000000000000E8    -1.158840048518395E1  -2.086735361939160E1  -3.479329271337590E1   8.140512752137559E1   2.096750766558393E1   1.718199601212459E2  -4.513287479812658E-2  -1.570645492707968E1  
 1.000000000000000E9    -1.146707893413359E1  -2.421342987716423E1  -3.387170521440886E1   8.063766601745138E1   2.095495121855170E1   1.707354701708514E2  -5.600499460876206E-2  -1.738176134347548E1  
 1.100000000000000E9    -1.135758029802516E1  -2.747608833908549E1  -3.307338009353811E1   7.931841203762522E1   2.094831680825980E1   1.696108706758846E2  -6.173025997356101E-2  -1.910166667063052E1  
 1.200000000000000E9    -1.125456128824065E1  -3.053822121929268E1  -3.235861532678990E1   7.846975712079887E1   2.092816204729533E1   1.684831080091173E2  -6.097976620436545E-2  -2.081991781820066E1  
 1.300000000000000E9    -1.112107770315150E1  -3.340290268799505E1  -3.167379336031546E1   7.764819503331987E1   2.090177513222954E1   1.674984676164716E2  -7.803585110220643E-2  -2.246462520993904E1  
 1.400000000000000E9    -1.104068052098515E1  -3.619048115111826E1  -3.106790778435465E1   7.665887147790869E1   2.087763761178373E1   1.663717908576789E2  -8.850315339682018E-2  -2.414720718232507E1  
 1.500000000000000E9    -1.089958085104862E1  -3.922711806520521E1  -3.049652358241637E1   7.593548671902354E1   2.084385663568865E1   1.653872754030186E2  -9.381842164259037E-2  -2.583633523661349E1  
 1.600000000000000E9    -1.078200296451402E1  -4.186673247325201E1  -2.996431291230622E1   7.502830720824845E1   2.082369451563524E1   1.643521338780222E2  -8.999162238338665E-2  -2.747752065906456E1  
 1.700000000000000E9    -1.064296423496074E1  -4.474378892041415E1  -2.945637757569894E1   7.404212487728506E1   2.076819747338038E1   1.634053248427791E2  -1.151668173403043E-1  -2.916739907861528E1  
 1.800000000000000E9    -1.056901175688856E1  -4.712026942300908E1  -2.899908124767135E1   7.310605943201863E1   2.073477318275742E1   1.623535792795077E2  -1.350579637575248E-1  -3.080425237429983E1  
 1.900000000000000E9    -1.040858888375642E1  -4.978608107002690E1  -2.855650283897920E1   7.214246928223363E1   2.069195109052084E1   1.613556649420087E2  -1.441102593044510E-1  -3.249817268912953E1  
 2.000000000000000E9    -1.031070427697016E1  -5.207184650677569E1  -2.816461218039328E1   7.133760643710401E1   2.065731237086334E1   1.604446687892481E2  -1.498896342763529E-1  -3.410044261274997E1  
 2.100000000000000E9    -1.014498814766848E1  -5.463562329910489E1  -2.777727265403962E1   7.046088170700079E1   2.061079533505783E1   1.595165618712747E2  -1.731157906711125E-1  -3.570261860935107E1  
 2.200000000000000E9    -1.004963485547499E1  -5.676743172017587E1  -2.739968698069005E1   6.953794209325685E1   2.057904769173207E1   1.585134881572659E2  -1.818976173901376E-1  -3.727657472953689E1  
 2.300000000000000E9    -9.928205068119638  -5.903022045637895E1  -2.706188775445433E1   6.860729005180497E1   2.052245471216929E1   1.576049137437881E2  -2.034781240226486E-1  -3.884944085200790E1  
 2.400000000000000E9    -9.847489054673117  -6.088939759149403E1  -2.673792759271461E1   6.774041956089756E1   2.047509748984302E1   1.566536186135334E2  -2.208433872799926E-1  -4.041369272866260E1  
 2.500000000000000E9    -9.703070301381702  -6.340458386602821E1  -2.640735151081170E1   6.680879584448157E1   2.042092321421883E1   1.556588722659093E2  -2.328691792096347E-1  -4.199999661372045E1  
 2.600000000000000E9    -9.592300503472607  -6.505111541059159E1  -2.612696377386533E1   6.582761946097524E1   2.036798899379897E1   1.548341842628644E2  -2.625690215003385E-1  -4.346675794162832E1  
 2.700000000000000E9    -9.508063682988562  -6.721093557382335E1  -2.584037982417218E1   6.497330495688229E1   2.030845747361997E1   1.538549658758802E2  -2.858975441942897E-1  -4.502592840261806E1  
 2.800000000000000E9    -9.408643057227769  -6.897234035722596E1  -2.560738844063791E1   6.410464365092916E1   2.026513790247266E1   1.530465535013694E2  -2.947249352787043E-1  -4.651812028565318E1  
 2.900000000000000E9    -9.319587503967835  -7.080811456832706E1  -2.534626698358770E1   6.335450485872077E1   2.019708024962492E1   1.521833397615799E2  -3.297371288266974E-1  -4.790289623512742E1  
 3.000000000000000E9    -9.213178713064417  -7.266866265687965E1  -2.510177709669628E1   6.246859222672071E1   2.015357042897132E1   1.512739182729723E2  -3.374981147239032E-1  -4.941435997080104E1  
 3.100000000000000E9    -9.116429991315796  -7.432716565773227E1  -2.487072439496759E1   6.167311655509797E1   2.010057089622941E1   1.505184697759135E2  -3.685553263871653E-1  -5.074009867710706E1  
 3.200000000000000E9    -9.049842738675499  -7.582794990639957E1  -2.467448636358627E1   6.090948016350070E1   2.004902853087565E1   1.495966574524046E2  -3.868811799822503E-1  -5.231762679872452E1  
 3.300000000000000E9    -8.974675572300052  -7.774043888224885E1  -2.443083014600342E1   5.991686823398373E1   1.999710379191641E1   1.487984881078358E2  -3.949069414311410E-1  -5.363612581175033E1  
 3.400000000000000E9    -8.840191600574441  -7.945900531770948E1  -2.422959288687008E1   5.925024396354438E1   1.994342060257773E1   1.478196760129285E2  -4.188168931133212E-1  -5.522839309399119E1  
 3.500000000000000E9    -8.770504567508857  -8.103669382780751E1  -2.405215286518255E1   5.855196685458886E1   1.988218968368508E1   1.469664706121515E2  -4.274516185029810E-1  -5.661624561019709E1  
 3.600000000000000E9    -8.642840265493675  -8.277117704002389E1  -2.385509342297139E1   5.767059755921732E1   1.982445409260760E1   1.461138427642371E2  -4.467205441168535E-1  -5.798585882995716E1  
 3.700000000000000E9    -8.580272186215957  -8.439986095082772E1  -2.369095068618575E1   5.691916573033299E1   1.975536707802477E1   1.453398667051631E2  -4.655233280396763E-1  -5.936962167299750E1  
 3.800000000000000E9    -8.470014558925849  -8.605120721592174E1  -2.351707737269185E1   5.632903760270305E1   1.968671537733100E1   1.444499958076617E2  -4.819007231385596E-1  -6.084538449109338E1  
 3.900000000000000E9    -8.360601671419111  -8.724554413039877E1  -2.336511994093499E1   5.558202666840577E1   1.962593574219019E1   1.437182087583153E2  -4.919680608486031E-1  -6.214978093447968E1  
 4.000000000000000E9    -8.255819590347693  -8.871086944244146E1  -2.321202375622856E1   5.503195296405662E1   1.955667404009216E1   1.429446023503505E2  -5.218603342645845E-1  -6.345414339007623E1  
 4.100000000000000E9    -8.185838336812477  -8.995316446329822E1  -2.306365816830927E1   5.423850028005138E1   1.948710591488694E1   1.422891411397639E2  -5.418833431748663E-1  -6.481162976361100E1  
 4.200000000000000E9    -8.095515971120534  -9.167485326015603E1  -2.293086080544085E1   5.354620433167750E1   1.941550533527572E1   1.415002342274869E2  -5.555974723869035E-1  -6.613123528783463E1  
 4.300000000000000E9    -8.056770282739016  -9.269569059689262E1  -2.278873973553125E1   5.286059266156422E1   1.935060640596584E1   1.407476929447371E2  -5.708915731335226E-1  -6.737955451335840E1  
 4.400000000000000E9    -7.939375898320203  -9.456682571313357E1  -2.265463152151419E1   5.212511674289542E1   1.927254269734061E1   1.400251260176282E2  -5.880760263523605E-1  -6.863975533807589E1  
 4.500000000000000E9    -7.854905665709018  -9.545364772844829E1  -2.253537207440281E1   5.148596280872634E1   1.920802841212771E1   1.392856630038287E2  -6.164510345277603E-1  -6.982223088696091E1  
 4.600000000000000E9    -7.779259308411577  -9.682806722523557E1  -2.241611315618995E1   5.084247239200570E1   1.913299420900415E1   1.385486174834165E2  -6.390490878714669E-1  -7.116321239831066E1  
 4.700000000000000E9    -7.728099450408832  -9.800434383235569E1  -2.228159721466732E1   5.023189700353724E1   1.906279136313055E1   1.378965697547556E2  -6.526878805008929E-1  -7.225746716621867E1  
 4.800000000000000E9    -7.595824105886893  -9.915289182109724E1  -2.218095320829680E1   4.965502633903692E1   1.899201274845852E1   1.371692852109433E2  -6.737642143174167E-1  -7.346695540899583E1  
 4.900000000000000E9    -7.580482460571075  -1.000665485499367E2  -2.206135956969750E1   4.898586421206662E1   1.892499839758257E1   1.365569965535360E2  -6.986243496704155E-1  -7.458860583141502E1  
 5.000000000000000E9    -7.502569378395568  -1.012245883408115E2  -2.195867445797773E1   4.841687804295949E1   1.884844310360741E1   1.358839152914329E2  -7.284157702660656E-1  -7.576649609729542E1  
 5.100000000000000E9    -7.449784953298700  -1.019402870703360E2  -2.186361754764095E1   4.769517017239598E1   1.877385188488311E1   1.352423461668435E2  -7.436463216170716E-1  -7.687629294967336E1  
 5.200000000000000E9    -7.410578454736640  -1.033008600795363E2  -2.175114286626546E1   4.701711314014311E1   1.871177742315970E1   1.346241909182252E2  -7.488417642175982E-1  -7.792935681427514E1  
 5.300000000000000E9    -7.340540207384838  -1.043810702622644E2  -2.165675041526525E1   4.641964370752431E1   1.863749134745940E1   1.339557310783899E2  -7.743521540062525E-1  -7.911674401611214E1  
 5.400000000000000E9    -7.313800220275681  -1.053357744275656E2  -2.156797069045147E1   4.584547664189562E1   1.857229825775318E1   1.332818886551486E2  -7.887056506263680E-1  -8.025262072911602E1  
 5.500000000000000E9    -7.260377862454385  -1.067784402918182E2  -2.148987819381538E1   4.517043770414826E1   1.850733189443752E1   1.326629595968068E2  -8.077320531252922E-1  -8.129440381098650E1  
 5.600000000000000E9    -7.152954888171798  -1.072050924415290E2  -2.141023206742932E1   4.467217928968447E1   1.843079923792940E1   1.321086418942527E2  -8.403643818507564E-1  -8.237978537028609E1  
 5.700000000000000E9    -7.189917480739911  -1.084132374494696E2  -2.132360516949177E1   4.402560398385958E1   1.836176738138655E1   1.314994045593518E2  -8.474187765922583E-1  -8.342458185279430E1  
 5.800000000000000E9    -7.007420229733153  -1.092501470789546E2  -2.123442000220973E1   4.346024183303651E1   1.828710327409471E1   1.309255010647457E2  -8.766738920510278E-1  -8.442272847321475E1  
 5.900000000000000E9    -7.051826429589730  -1.098348792109050E2  -2.116355576522755E1   4.291674029470187E1   1.822033173564292E1   1.303141835016375E2  -8.943901395829571E-1  -8.544710460369910E1  
 6.000000000000000E9    -6.966781763273467  -1.111232480390729E2  -2.108039020771410E1   4.240439333243205E1   1.814824606373914E1   1.297410728984629E2  -9.066324174608796E-1  -8.647686423909377E1  
 6.100000000000000E9    -6.959083868693675  -1.117373523763059E2  -2.101351056473616E1   4.187856753254776E1   1.807614123539507E1   1.292013649796215E2  -9.134657558768180E-1  -8.741473596164316E1  
 6.200000000000000E9    -6.912991779813651  -1.126294061050421E2  -2.092460967380533E1   4.140791016854730E1   1.800946114814267E1   1.285987486962586E2  -9.321139664103655E-1  -8.838745534178247E1  
 6.300000000000000E9    -6.868269939577205  -1.139050897197107E2  -2.086825359870488E1   4.078937188537481E1   1.793015356804687E1   1.280671688049127E2  -9.474170116558801E-1  -8.941228920984253E1  
 6.400000000000000E9    -6.806167484888615  -1.140761447211678E2  -2.078132532187181E1   4.027252426394795E1   1.785918036791817E1   1.276160889786578E2  -9.719739042445033E-1  -9.030827908335756E1  
 6.500000000000000E9    -6.847961636885521  -1.153467791255952E2  -2.072914059462389E1   3.972221640998165E1   1.779458075867971E1   1.270219085504051E2  -9.819607090092345E-1  -9.132257265590502E1  
 6.600000000000000E9    -6.709769582189527  -1.162132470635542E2  -2.068638160464249E1   3.921413894771345E1   1.771710389682125E1   1.264311682779687E2  -9.976961790306241E-1  -9.226877547886699E1  
 6.700000000000000E9    -6.755469709933556  -1.166712392787071E2  -2.060912742867023E1   3.886773920829312E1   1.765634337846124E1   1.258509533035472E2  -1.018152536255615  -9.328870404734305E1  
 6.800000000000000E9    -6.616242085888241  -1.179122181314868E2  -2.055749985004518E1   3.828988060345347E1   1.757665574276921E1   1.252863479231613E2  -1.025196546660577  -9.431063709137372E1  
 6.900000000000000E9    -6.585246620768489  -1.180349451546813E2  -2.051442390195221E1   3.785010555603203E1   1.751008981197022E1   1.247903639655957E2  -1.057393808408065  -9.518985282250168E1  
 7.000000000000000E9    -6.545615368425565  -1.196561929679493E2  -2.046937266564436E1   3.732643279948886E1   1.743367749030681E1   1.242607373494332E2  -1.055328972478768  -9.605655828964213E1  
 7.100000000000000E9    -6.519969168260662  -1.200975635722085E2  -2.040350039520103E1   3.686788032549755E1   1.736512035290894E1   1.237898666522421E2  -1.070410583346959  -9.683882237416833E1  
 7.200000000000000E9    -6.474297922405246  -1.210055583847315E2  -2.036504091704988E1   3.644602814072565E1   1.728886810437467E1   1.232792628390314E2  -1.094009169955492  -9.770840051239435E1  
 7.300000000000000E9    -6.463494783377881  -1.215142231764870E2  -2.031034714020339E1   3.599010876589505E1   1.721255963154629E1   1.227950447376686E2  -1.119967167792568  -9.857379574866732E1  
 7.400000000000000E9    -6.366343786756885  -1.223844921518638E2  -2.026390530857754E1   3.552307952947606E1   1.713538576931805E1   1.223521938237923E2  -1.136295680095745  -9.948048686883455E1  
 7.500000000000000E9    -6.392404238216619  -1.228947054870193E2  -2.022003508144355E1   3.506647751592193E1   1.707808779193845E1   1.218936394740344E2  -1.140076662428335  -1.002880021645239E2  
 7.600000000000000E9    -6.304863318316324  -1.238880956160841E2  -2.017814749744430E1   3.478672878664339E1   1.700050528680748E1   1.213557010449032E2  -1.148961458725753  -1.011447825548584E2  
 7.700000000000000E9    -6.252379588873404  -1.244906912716993E2  -2.012657018514890E1   3.437433890941141E1   1.692154988477493E1   1.209530297275902E2  -1.170927120211979  -1.019692864459235E2  
 7.800000000000000E9    -6.164495491306700  -1.250557786055619E2  -2.009052620688814E1   3.387852856445537E1   1.685250713341813E1   1.205327569616623E2  -1.185061741308020  -1.027995325646127E2  
 7.900000000000000E9    -6.209495179230265  -1.256078942844138E2  -2.006198807758629E1   3.348029778220361E1   1.678110441783262E1   1.200277773378284E2  -1.211590712713372  -1.036341613709176E2  
 8.000000000000000E9    -6.135119639578344  -1.262053217687547E2  -1.997697119345582E1   3.339463381479881E1   1.671325528611742E1   1.196404220166019E2  -1.217201524039151  -1.042536276173962E2  
 8.100000000000000E9    -6.229370654813691  -1.260465875458843E2  -1.993283661519268E1   3.260537486587474E1   1.666552359362722E1   1.194628878860081E2  -1.213520725496590  -1.048880623891042E2  
 8.200000000000000E9    -6.148273855180476  -1.276306601967053E2  -1.991666045526214E1   3.208618802898253E1   1.660491215064425E1   1.189221875673907E2  -1.230178754996089  -1.056472706991468E2  
 8.300000000000000E9    -6.091540448184607  -1.270092234565692E2  -1.987299451995015E1   3.175480887944550E1   1.653984003489036E1   1.185667115004411E2  -1.257096392057640  -1.063623913571449E2  
 8.400000000000000E9    -6.197805941347840  -1.279343510678055E2  -1.983624930361481E1   3.136704189948046E1   1.647038803790585E1   1.181545615490300E2  -1.271406701602961  -1.070745796875076E2  
 8.500000000000000E9    -6.091346560995286  -1.286089284352897E2  -1.979496643020973E1   3.104669246111525E1   1.641280114325240E1   1.177527240059743E2  -1.269496730912195  -1.077985013314828E2  
 8.600000000000000E9    -6.049075906119044  -1.284375576598952E2  -1.975450669158504E1   3.074923684541381E1   1.635076628771184E1   1.174450612761187E2  -1.274499687415212  -1.083059472216857E2  
 8.700000000000000E9    -6.084704959247607  -1.298422098284268E2  -1.972437801334197E1   3.025711573291973E1   1.628295499990812E1   1.169040911845302E2  -1.277963477039064  -1.092007633111080E2  
 8.800000000000000E9    -5.918219610890621  -1.301454184184984E2  -1.970400115139407E1   2.984645393766237E1   1.620739094823493E1   1.165016597905986E2  -1.311173128100487  -1.098181873207462E2  
 8.900000000000000E9    -6.093159094476927  -1.301365027108921E2  -1.966140208122782E1   2.966256116199936E1   1.616377190149568E1   1.161139550737793E2  -1.309139664608735  -1.104940692166291E2  
 9.000000000000000E9    -5.987416456762941  -1.320930356284662E2  -1.962913778825263E1   2.911112893484282E1   1.608749534541576E1   1.154393388224221E2  -1.314603122165312  -1.113939022581656E2  
 9.100000000000000E9    -5.986341300447085  -1.312064494480346E2  -1.958501495578749E1   2.879980498238757E1   1.603852900623789E1   1.150995397114359E2  -1.317650321601627  -1.120604125551470E2  
 9.200000000000000E9    -6.062358699801627  -1.335559616965476E2  -1.958543112387405E1   2.841464667945419E1   1.596279597805537E1   1.145646489312519E2  -1.332633994008506  -1.127842660361981E2  
 9.300000000000000E9    -5.824632685814135  -1.333741036507736E2  -1.956531837417005E1   2.801424037887399E1   1.589866309715717E1   1.141852792085192E2  -1.362647365969102  -1.134079860182107E2  
 9.400000000000000E9    -6.021655511955020  -1.332321673137999E2  -1.952870803702945E1   2.773789569186670E1   1.584374917487544E1   1.138488158176452E2  -1.370049499003777  -1.140990419128589E2  
 9.500000000000000E9    -5.914715243986664  -1.350502217813485E2  -1.950495023620520E1   2.731402616761839E1   1.577209813026058E1   1.133352687554738E2  -1.361430032986408  -1.149348340273037E2  
 9.600000000000000E9    -5.831799597992769  -1.345601431520038E2  -1.948255823055538E1   2.700329192817985E1   1.569923499584737E1   1.129458016430426E2  -1.372263729974023  -1.155835909533470E2  
 9.700000000000000E9    -5.941385539393514  -1.355500887431311E2  -1.946310606452227E1   2.666733989678607E1   1.563503736526414E1   1.126458040190461E2  -1.382610709938991  -1.161979765534629E2  
 9.800000000000000E9    -5.763657720152925  -1.364532282803715E2  -1.945152371337314E1   2.636331202607267E1   1.554851228288567E1   1.122526925027436E2  -1.393992908175843  -1.168992605504193E2  
 9.900000000000000E9    -5.802327870787723  -1.359413084159910E2  -1.942390007746879E1   2.602757155954343E1   1.548921289020378E1   1.118838538002840E2  -1.410815189498528  -1.173657020698332E2  
