#  HZ   S   DB   R     50.00 
! Rohde & Schwarz ZVA50 4Ports - Version 4.11 - 1145.1110k52 SN: 100136
! Date: 2022-09-20 22:15:52
! Measurements: S11 S21 S12 S22 
! 
 1.000000000000000E8    -1.169276980854972E1  -2.085865508623795  -5.434215328910422E1   8.944960395274350E1   2.024875008594847E1   1.793356989912244E2  -3.292739338975292E-2  -1.642274451746029  
 2.000000000000000E8    -1.158773960633122E1  -5.261261135089521  -4.707619939966308E1   8.827472922590455E1   2.028705017906090E1   1.782972758878470E2  -2.058363158425986E-2  -3.329728044743773  
 3.000000000000000E8    -1.153785097008154E1  -7.922232899982971  -4.382742706560066E1   8.634843313541936E1   2.030086576814684E1   1.772118087278290E2  -2.168017108318740E-3  -5.114782365810727  
 4.000000000000000E8    -1.144436336449635E1  -1.113829852685435E1  -4.117810820875839E1   8.507566809298615E1   2.028415878392067E1   1.761652037836387E2  -2.133218312889129E-2  -6.845633555840310  
 5.000000000000000E8    -1.138972472437245E1  -1.394541152029512E1  -3.918415206635223E1   8.467601684711624E1   2.029523038291602E1   1.750823261616691E2  -2.722456747773803E-2  -8.530130105459227  
 6.000000000000000E8    -1.135737847558516E1  -1.694619595875751E1  -3.774311498186676E1   8.379091975907296E1   2.027362565789005E1   1.741320885606125E2  -2.997649848121329E-2  -1.021142455548813E1  
 7.000000000000000E8    -1.131118914463542E1  -1.978527582286045E1  -3.646246177957004E1   8.289713363845729E1   2.028382179681170E1   1.731523593020048E2  -3.272287317584816E-2  -1.189745086075693E1  
 8.000000000000000E8    -1.127016288358543E1  -2.266071500310370E1  -3.524337481515811E1   8.222121672662489E1   2.027644418302455E1   1.720496822913039E2  -4.800643492963402E-2  -1.356349450272691E1  
 9.000000000000000E8    -1.117086969244483E1  -2.562881429443477E1  -3.423142139373027E1   8.112204409583988E1   2.024915262115660E1   1.709846404107508E2  -4.479345361111373E-2  -1.526893353483751E1  
 1.000000000000000E9    -1.109800364384208E1  -2.827175983683142E1  -3.336770022999676E1   8.005129831762663E1   2.023210138415066E1   1.700259673275373E2  -5.371131261564451E-2  -1.687938895598218E1  
 1.100000000000000E9    -1.104101831402756E1  -3.110653327171750E1  -3.253849261037136E1   7.917878005815595E1   2.020876877361108E1   1.689726152080035E2  -5.771363003091358E-2  -1.860212449225915E1  
 1.200000000000000E9    -1.094712856491523E1  -3.367166597893955E1  -3.183930688301955E1   7.823715396403514E1   2.018675768971859E1   1.680332093369692E2  -5.884147437301689E-2  -2.014121375108741E1  
 1.300000000000000E9    -1.086414509426324E1  -3.620185134113512E1  -3.117034733305783E1   7.731448143022980E1   2.015224477946981E1   1.670852163374181E2  -9.158705604368170E-2  -2.181447746225313E1  
 1.400000000000000E9    -1.079356147737346E1  -3.860642118947623E1  -3.056169770598935E1   7.643858444154262E1   2.012541014456334E1   1.660737821632881E2  -8.658859912746697E-2  -2.346204739390007E1  
 1.500000000000000E9    -1.068372643857156E1  -4.147196237086666E1  -2.998602927339936E1   7.559949738085982E1   2.009570285150722E1   1.650887945886648E2  -9.942770777722391E-2  -2.509999676695331E1  
 1.600000000000000E9    -1.058429230621903E1  -4.382673939780730E1  -2.945849863674670E1   7.471544872017167E1   2.005786057537667E1   1.641643565055085E2  -1.171882625205813E-1  -2.670546144766286E1  
 1.700000000000000E9    -1.046757898010002E1  -4.633176105440487E1  -2.897824491073384E1   7.387207426723811E1   2.002083454669570E1   1.632147827671924E2  -1.242489132920163E-1  -2.836008515840079E1  
 1.800000000000000E9    -1.038367725960817E1  -4.861578543158107E1  -2.849760499726578E1   7.295782062975788E1   1.998992438388647E1   1.621653533508220E2  -1.365688817670105E-1  -2.993960615977409E1  
 1.900000000000000E9    -1.025260886711689E1  -5.102958219686354E1  -2.805356064114900E1   7.209137376123539E1   1.995006125830069E1   1.612268136328779E2  -1.458095155976830E-1  -3.154821826484623E1  
 2.000000000000000E9    -1.016789198265821E1  -5.308455266616490E1  -2.766960378031994E1   7.130956193234739E1   1.991237225157440E1   1.603653481334645E2  -1.548090096325082E-1  -3.308511413872220E1  
 2.100000000000000E9    -1.003080846369218E1  -5.543793814648061E1  -2.727591463439577E1   7.038944135310230E1   1.986955538298021E1   1.594295872182657E2  -1.802539303301580E-1  -3.467211881354753E1  
 2.200000000000000E9    -9.948864335926627  -5.760060098256150E1  -2.691908375043144E1   6.948265910885097E1   1.982951448687603E1   1.585077331177793E2  -1.924343889219137E-1  -3.618025382454609E1  
 2.300000000000000E9    -9.833339273458627  -5.968632759477801E1  -2.657023153743702E1   6.868155101536809E1   1.977808820221414E1   1.575566017748604E2  -2.145923166779024E-1  -3.777596526001096E1  
 2.400000000000000E9    -9.775243801337055  -6.151820369113634E1  -2.625928427334264E1   6.778211356717345E1   1.973206060285844E1   1.566806156107459E2  -2.300326512551270E-1  -3.926906860825608E1  
 2.500000000000000E9    -9.624771586043638  -6.400425054157061E1  -2.592212462565771E1   6.684048149661479E1   1.968021121782870E1   1.557706661695258E2  -2.460961023179226E-1  -4.082305887265796E1  
 2.600000000000000E9    -9.528324002516479  -6.542236163400460E1  -2.563189478690825E1   6.598102860711767E1   1.963945703711172E1   1.549201819251215E2  -2.564869505451183E-1  -4.225576980431180E1  
 2.700000000000000E9    -9.457633262910123  -6.744111815877619E1  -2.536513090489341E1   6.507821734625109E1   1.957180053846260E1   1.540014528915788E2  -2.948163413458618E-1  -4.378821133103762E1  
 2.800000000000000E9    -9.356808397229710  -6.920069683206103E1  -2.510267859198183E1   6.429313451269843E1   1.953424005426395E1   1.532112758147360E2  -2.955049420802489E-1  -4.522504441107230E1  
 2.900000000000000E9    -9.267892110704873  -7.105685775379207E1  -2.485207106754551E1   6.339967880684878E1   1.947473880783263E1   1.523299054095465E2  -3.264827774014206E-1  -4.659527733067156E1  
 3.000000000000000E9    -9.199878046871653  -7.270735823295105E1  -2.462281632881340E1   6.266962908729737E1   1.941877600596916E1   1.514677839901688E2  -3.506050258273836E-1  -4.804684316918392E1  
 3.100000000000000E9    -9.094364318111085  -7.437957907585012E1  -2.438504966608223E1   6.187327442385165E1   1.937071899032192E1   1.505636740053104E2  -3.768393321910108E-1  -4.948410114590687E1  
 3.200000000000000E9    -9.007882269147299  -7.581259470674186E1  -2.416810997437782E1   6.111794290243597E1   1.933277427041146E1   1.497877578299206E2  -3.772131728206457E-1  -5.095108572973217E1  
 3.300000000000000E9    -8.955604424739066  -7.762273849577815E1  -2.394809356360556E1   6.035684763027752E1   1.926849273286150E1   1.489886887445694E2  -3.974990646960380E-1  -5.229068493175934E1  
 3.400000000000000E9    -8.819431839111836  -7.917361017715743E1  -2.373603636732480E1   5.955719445832937E1   1.920593521032530E1   1.481199200275315E2  -4.279626826925267E-1  -5.371165227514519E1  
 3.500000000000000E9    -8.726956419822365  -8.073674573771237E1  -2.352309136366217E1   5.885972231827864E1   1.915199944712039E1   1.472868425890032E2  -4.282887121649867E-1  -5.505946141767269E1  
 3.600000000000000E9    -8.616779174065655  -8.252700993291920E1  -2.335473493098601E1   5.806379867928460E1   1.908957741676482E1   1.465153899891960E2  -4.549081889788810E-1  -5.641229412410259E1  
 3.700000000000000E9    -8.565196883931289  -8.400395781736440E1  -2.317563285754572E1   5.721374924227995E1   1.902562848818250E1   1.456674513922033E2  -4.721926068352116E-1  -5.787432886790943E1  
 3.800000000000000E9    -8.456312006903529  -8.570245120761132E1  -2.299289926384340E1   5.655947769206862E1   1.896540663720954E1   1.448970481743866E2  -4.849715268111077E-1  -5.924873640155087E1  
 3.900000000000000E9    -8.357973410540982  -8.686876764314370E1  -2.282185210048926E1   5.590467155219649E1   1.891014379439922E1   1.441343255596426E2  -4.973623228522478E-1  -6.052759306292012E1  
 4.000000000000000E9    -8.257927508201558  -8.836072250849642E1  -2.265781322875299E1   5.530924159246448E1   1.884999037197258E1   1.434321861503114E2  -5.200442958689767E-1  -6.177844702511045E1  
 4.100000000000000E9    -8.174936844018545  -8.945895363704472E1  -2.254410756335646E1   5.450764021024552E1   1.877796114847612E1   1.427331183540900E2  -5.457292433618609E-1  -6.309161668318476E1  
 4.200000000000000E9    -8.104835952470570  -9.121234201905337E1  -2.240087512276332E1   5.379852492178143E1   1.871158146610658E1   1.419213719199130E2  -5.640831666961891E-1  -6.446161995095251E1  
 4.300000000000000E9    -8.055929377847260  -9.225194693539447E1  -2.225387057317392E1   5.315293572909446E1   1.864769398691977E1   1.412076653442152E2  -5.787511216948883E-1  -6.567292931443234E1  
 4.400000000000000E9    -7.950993896846013  -9.402056329573688E1  -2.212822266075130E1   5.244882550327253E1   1.857848252084803E1   1.404654466172475E2  -5.984047540336890E-1  -6.695837037224925E1  
 4.500000000000000E9    -7.867789512918400  -9.498204221059920E1  -2.200350642509072E1   5.179995602967534E1   1.851743332655062E1   1.397506752381247E2  -6.229574379690201E-1  -6.811001380450915E1  
 4.600000000000000E9    -7.791284025293043  -9.643260300560782E1  -2.188200553519318E1   5.114888329829935E1   1.844155963631198E1   1.390302827797754E2  -6.470427781428917E-1  -6.942154121821598E1  
 4.700000000000000E9    -7.746372880709180  -9.752274907806479E1  -2.176529534433992E1   5.054118240192285E1   1.837231117047058E1   1.383909934880927E2  -6.627034177640333E-1  -7.052786593528680E1  
 4.800000000000000E9    -7.616160963102342  -9.863242888960119E1  -2.164196804333720E1   4.985234460292831E1   1.830980191867810E1   1.376979117424130E2  -6.802063365861286E-1  -7.167696571964594E1  
 4.900000000000000E9    -7.610288373066353  -9.958766873555940E1  -2.153022673968464E1   4.929055750238332E1   1.824721278839017E1   1.370579076565064E2  -6.989090143087952E-1  -7.281729538833557E1  
 5.000000000000000E9    -7.522092467506554  -1.007800505853164E2  -2.142351924730574E1   4.871557946394582E1   1.818182823866859E1   1.363321430323400E2  -7.245317895550144E-1  -7.399355613339897E1  
 5.100000000000000E9    -7.471591070441661  -1.014757571622492E2  -2.132084934326879E1   4.796836517242111E1   1.810624939426620E1   1.357084967836821E2  -7.480641056435986E-1  -7.508477494001740E1  
 5.200000000000000E9    -7.432884450262995  -1.027319420021530E2  -2.121491955736137E1   4.732827155413276E1   1.803465649751290E1   1.350640538912656E2  -7.556923226375150E-1  -7.618924738003591E1  
 5.300000000000000E9    -7.374028944102146  -1.037893443338030E2  -2.111979417229232E1   4.679616452886494E1   1.796714017242490E1   1.344026138975601E2  -7.797026874581970E-1  -7.732454987428892E1  
 5.400000000000000E9    -7.319893163450816  -1.046140057218836E2  -2.101777894838834E1   4.615901217736321E1   1.789716990580609E1   1.338193594677980E2  -7.998191778526949E-1  -7.832941071584516E1  
 5.500000000000000E9    -7.287628591195922  -1.060571414489751E2  -2.093671854181981E1   4.555388147858952E1   1.782544987294728E1   1.331707122304227E2  -8.262880623549385E-1  -7.944584713299643E1  
 5.600000000000000E9    -7.179858001141334  -1.066128614441427E2  -2.085169106236084E1   4.492181160706625E1   1.775850694946197E1   1.325590844323424E2  -8.504237192894204E-1  -8.054544373809310E1  
 5.700000000000000E9    -7.206812573046796  -1.077114447312748E2  -2.076343395482798E1   4.437038796172481E1   1.769273485982907E1   1.319597272147069E2  -8.555561630265021E-1  -8.156205504594479E1  
 5.800000000000000E9    -7.038041868039011  -1.085678612120173E2  -2.067505881858368E1   4.388896586570164E1   1.762206523437759E1   1.314058982382320E2  -8.812420648141288E-1  -8.254875042480893E1  
 5.900000000000000E9    -7.074208503515299  -1.091744192761485E2  -2.060020344940886E1   4.327893550194987E1   1.755726670284581E1   1.308274388710698E2  -9.036348392649554E-1  -8.353827826396621E1  
 6.000000000000000E9    -7.000492477787725  -1.104366622895741E2  -2.052320850568329E1   4.274115740178325E1   1.748403083883997E1   1.302527415345864E2  -9.205289103907623E-1  -8.456711190080141E1  
 6.100000000000000E9    -6.975453874916155  -1.110647184666386E2  -2.045151921301055E1   4.227908985866888E1   1.742272559733062E1   1.296829654540210E2  -9.216667573942324E-1  -8.558680712323194E1  
 6.200000000000000E9    -6.951142124840756  -1.118421231177314E2  -2.037797567519582E1   4.176344593637473E1   1.734859486823489E1   1.291033488645900E2  -9.437190866180626E-1  -8.647840725536582E1  
 6.300000000000000E9    -6.895945977214492  -1.131685454560397E2  -2.031328981450255E1   4.112746912719852E1   1.727842403512851E1   1.285615662012741E2  -9.614655171407615E-1  -8.755774960207081E1  
 6.400000000000000E9    -6.811421854275077  -1.135223559522050E2  -2.023634679296605E1   4.063325572388269E1   1.721128249993254E1   1.280823527214053E2  -9.857372163718104E-1  -8.844449171240093E1  
 6.500000000000000E9    -6.877141501586632  -1.146773673808285E2  -2.017496891084908E1   4.014132626464768E1   1.714062806694625E1   1.275099073494832E2  -9.956676303675910E-1  -8.947159323114541E1  
 6.600000000000000E9    -6.718750339165012  -1.155189766998673E2  -2.012137820298047E1   3.960643352672679E1   1.706802179824715E1   1.268944422577161E2  -1.013786337746131  -9.043336005601690E1  
 6.700000000000000E9    -6.778285292963794  -1.159774759925642E2  -2.004302543007382E1   3.919043684894940E1   1.700921056147972E1   1.263775091111341E2  -1.021639084695569  -9.135719369727431E1  
 6.800000000000000E9    -6.636237643991216  -1.171645356143373E2  -1.998784270438556E1   3.860573601445485E1   1.693024664960838E1   1.257921956366795E2  -1.036445515384303  -9.234950462586249E1  
 6.900000000000000E9    -6.611284875224382  -1.174322563169341E2  -1.993351386203727E1   3.808231269927175E1   1.685956491264622E1   1.253216858220537E2  -1.071814863159973  -9.323587783221387E1  
 7.000000000000000E9    -6.579924275485920  -1.189077065164510E2  -1.988904841800443E1   3.763967525631676E1   1.678806382031466E1   1.247943672408060E2  -1.073873775258177  -9.410871985256694E1  
 7.100000000000000E9    -6.557255440284171  -1.194258239759432E2  -1.983950532220440E1   3.719346408894632E1   1.671825718783869E1   1.242984462985918E2  -1.094104566475432  -9.491541132073685E1  
 7.200000000000000E9    -6.502917807426046  -1.202628261010768E2  -1.978724306892469E1   3.679597197196526E1   1.664644796384105E1   1.238262125379459E2  -1.108352164592810  -9.574238538416958E1  
 7.300000000000000E9    -6.486845616171526  -1.208007314925012E2  -1.972808357582323E1   3.635140409345716E1   1.657700974272628E1   1.233162459358759E2  -1.134462582635180  -9.666448387719295E1  
 7.400000000000000E9    -6.402013033098557  -1.216737003800658E2  -1.968992437363212E1   3.582763111254211E1   1.651008618996138E1   1.228655287466070E2  -1.149321103950365  -9.753103180688247E1  
 7.500000000000000E9    -6.429011005123936  -1.222005404559170E2  -1.964200593545429E1   3.537309215732588E1   1.643728624957013E1   1.224028965523593E2  -1.157510001345006  -9.838275421607263E1  
 7.600000000000000E9    -6.337528780197443  -1.232259141953305E2  -1.960219950898907E1   3.508693305155962E1   1.636909852824039E1   1.218820823549683E2  -1.166365249549052  -9.916860803530261E1  
 7.700000000000000E9    -6.291390384164822  -1.238349565431513E2  -1.955563338047298E1   3.460561508781633E1   1.629938089902118E1   1.214684254575337E2  -1.183491944185947  -1.000239836398830E2  
 7.800000000000000E9    -6.210436145264137  -1.243622564604880E2  -1.950441588239448E1   3.417231425496903E1   1.623550964415683E1   1.209348999413786E2  -1.203004338149474  -1.009138123428799E2  
 7.900000000000000E9    -6.238426555189890  -1.248375350058094E2  -1.947735773598662E1   3.369127195771279E1   1.615639582930779E1   1.204945124851395E2  -1.228228142348578  -1.017288337715321E2  
 8.000000000000000E9    -6.175291757599986  -1.255070803568068E2  -1.940392601795884E1   3.365443406778204E1   1.609359091368500E1   1.201038034431731E2  -1.236220435151115  -1.023238910273766E2  
 8.100000000000000E9    -6.252970417043962  -1.253450609888161E2  -1.935284671671485E1   3.279622547734923E1   1.603890629998259E1   1.198631300408899E2  -1.235647544966314  -1.029952153507638E2  
 8.200000000000000E9    -6.177522752641946  -1.267736807463108E2  -1.933135710437404E1   3.244542920384416E1   1.597778746084624E1   1.193664351276714E2  -1.252399217136289  -1.037054169560056E2  
 8.300000000000000E9    -6.132593082706847  -1.263077285697822E2  -1.929145740066010E1   3.203994341443763E1   1.591834555851613E1   1.190128466986708E2  -1.273473009127548  -1.044339335791568E2  
 8.400000000000000E9    -6.229440277422117  -1.272808987866681E2  -1.924959297805039E1   3.167394449281118E1   1.585925730617648E1   1.185448843058839E2  -1.274989027596950  -1.051699329746915E2  
 8.500000000000000E9    -6.131312627880957  -1.279339497772904E2  -1.921307710384323E1   3.135391919993484E1   1.578641198822036E1   1.181091196642473E2  -1.298652468020993  -1.059556712076909E2  
 8.600000000000000E9    -6.083718847812303  -1.277839496234839E2  -1.917522476182880E1   3.102070693971270E1   1.573067106672506E1   1.177597344871852E2  -1.303526977461566  -1.064633830332970E2  
 8.700000000000000E9    -6.112704019032270  -1.291675172796054E2  -1.913348872762908E1   3.056343687357433E1   1.567191908992989E1   1.172463792999375E2  -1.300215474014529  -1.072728405091666E2  
 8.800000000000000E9    -5.953944355638267  -1.295238897709138E2  -1.911506033942894E1   3.020828494178746E1   1.559812321974356E1   1.168083385556120E2  -1.334685318685874  -1.079828585238634E2  
 8.900000000000000E9    -6.101538658671574  -1.294336208086288E2  -1.906531991758882E1   2.997094174459964E1   1.555031522740951E1   1.163745065113210E2  -1.344255530891866  -1.086823222142579E2  
 9.000000000000000E9    -6.020474663750165  -1.314936131426395E2  -1.903982035729169E1   2.939617546251780E1   1.547512573056859E1   1.158348058921637E2  -1.342970996916606  -1.095121290756469E2  
 9.100000000000000E9    -6.001724101434300  -1.304786551728266E2  -1.900262170485125E1   2.913171961862825E1   1.543289840122118E1   1.154394737297880E2  -1.344879532954826  -1.101973143170576E2  
 9.200000000000000E9    -6.084187751161089  -1.328437602420475E2  -1.898857401588954E1   2.863890662124742E1   1.534797139836828E1   1.149895165212079E2  -1.363970340612932  -1.108970767126391E2  
 9.300000000000000E9    -5.850943195357419  -1.327200797977750E2  -1.896173411840018E1   2.830159380941522E1   1.528845118283511E1   1.145670649652903E2  -1.386582115031182  -1.115629135639977E2  
 9.400000000000000E9    -6.021961147993952  -1.327130539149502E2  -1.892277929054119E1   2.798396343070062E1   1.523274576894147E1   1.142334757905614E2  -1.399555640741625  -1.122340653088716E2  
 9.500000000000000E9    -5.941599415543796  -1.344264035582225E2  -1.890350701309559E1   2.758063937670014E1   1.516421126072080E1   1.137630407144512E2  -1.394950401017706  -1.130845321589861E2  
 9.600000000000000E9    -5.864092422384315  -1.339292736660401E2  -1.888626409620962E1   2.718154276768624E1   1.508942228519694E1   1.133561390139113E2  -1.404719365412969  -1.137335388168012E2  
 9.700000000000000E9    -5.949658620135256  -1.349199373384405E2  -1.886043033997441E1   2.692361037898211E1   1.503260080376376E1   1.130122131468993E2  -1.411115058465131  -1.143684871645916E2  
 9.800000000000000E9    -5.800025502460279  -1.358210282633477E2  -1.885667930919275E1   2.650728042097888E1   1.495400537872381E1   1.126401825007215E2  -1.426737746931518  -1.150636537344245E2  
 9.900000000000000E9    -5.820274820542180  -1.353699595653707E2  -1.881833284699553E1   2.624115402375788E1   1.489362166566362E1   1.123219083413824E2  -1.440354310010882  -1.155048643387273E2  
