#  HZ   S   DB   R     50.00 
! Rohde & Schwarz ZVA50 4Ports - Version 4.11 - 1145.1110k52 SN: 100136
! Date: 2022-09-20 22:13:11
! Measurements: S11 S21 S12 S22 
! 
 1.000000000000000E8    -1.167977898209620E1  -2.376475758741750  -5.184807871427167E1   8.692539877460442E1   1.918422549519355E1   1.790505609465934E2  -1.747958795218761E-2  -1.548136911621726  
 2.000000000000000E8    -1.169658414192805E1  -5.312514127239421  -4.678501343162855E1   8.852622492984722E1   1.917689418484443E1   1.781377440699015E2  -3.340769052757470E-3  -3.114850607393783  
 3.000000000000000E8    -1.168593835353590E1  -8.166849205994774  -4.343374919958580E1   8.782901049570745E1   1.916700467521843E1   1.769469203314532E2  -1.239629666647365E-2  -4.906418917804011  
 4.000000000000000E8    -1.161626956461900E1  -1.124395316448785E1  -4.061480439898201E1   8.599784508331773E1   1.912576527535426E1   1.760279551004285E2  -2.801448440714878E-2  -6.613270020681548  
 5.000000000000000E8    -1.162916578637867E1  -1.423104221056845E1  -3.875399660018385E1   8.472315744249791E1   1.913233965884477E1   1.750342695822976E2  -1.724634092778853E-2  -8.165103707682755  
 6.000000000000000E8    -1.153255841530568E1  -1.708652655101723E1  -3.722458638396206E1   8.419372851418173E1   1.911842414241002E1   1.740808097061928E2  -1.513110852053966E-2  -9.799121446541601  
 7.000000000000000E8    -1.151123699733667E1  -1.978941247593994E1  -3.590833043751823E1   8.348427180993473E1   1.910411221759589E1   1.731793089555676E2  -2.836478287228828E-2  -1.140874778933873E1  
 8.000000000000000E8    -1.147074170440647E1  -2.263314239151606E1  -3.480178983857903E1   8.206072843520354E1   1.910302081442442E1   1.720914244384759E2  -3.952940649572861E-2  -1.311590959381218E1  
 9.000000000000000E8    -1.140602096093213E1  -2.534427434520318E1  -3.378246141859303E1   8.117000050702251E1   1.907656664432970E1   1.711651146590487E2  -4.647890726649397E-2  -1.468464675263130E1  
 1.000000000000000E9    -1.133663152307973E1  -2.796232779996759E1  -3.289101653485815E1   8.033924120053236E1   1.905579829648766E1   1.702049677134995E2  -6.045062833847155E-2  -1.628373209790289E1  
 1.100000000000000E9    -1.127451645037343E1  -3.063105333728600E1  -3.208591485524745E1   7.935659481557771E1   1.904844074596712E1   1.691844900589351E2  -6.505552530762507E-2  -1.792249767209577E1  
 1.200000000000000E9    -1.120481288459524E1  -3.320196941794793E1  -3.137262339557238E1   7.869700118248866E1   1.902820059776007E1   1.681659595091923E2  -6.857585910684937E-2  -1.949915739097492E1  
 1.300000000000000E9    -1.111885670687317E1  -3.574944469829709E1  -3.071663675291321E1   7.761079782201955E1   1.900373903564378E1   1.673021869687561E2  -7.431257759018006E-2  -2.103812387971053E1  
 1.400000000000000E9    -1.104936152621058E1  -3.812592919268602E1  -3.008463059073363E1   7.684234046202737E1   1.897802533392775E1   1.662426264902657E2  -8.879811283508432E-2  -2.266855658326011E1  
 1.500000000000000E9    -1.094535045952208E1  -4.070023994973134E1  -2.951966130358180E1   7.591886945986913E1   1.893954486757838E1   1.653691620679911E2  -9.607166576011456E-2  -2.419748585865463E1  
 1.600000000000000E9    -1.084806343586183E1  -4.310168240931086E1  -2.899107714179766E1   7.518652975112526E1   1.891657802883545E1   1.643966147379968E2  -9.957798729102546E-2  -2.577491672047201E1  
 1.700000000000000E9    -1.072239252780328E1  -4.573563807282063E1  -2.849520409409448E1   7.426554368805444E1   1.885371587397879E1   1.635064895375944E2  -1.175195484958972E-1  -2.736778725441966E1  
 1.800000000000000E9    -1.067722055362490E1  -4.786732746013332E1  -2.804983877249375E1   7.341420740190408E1   1.883495951923549E1   1.625332204171477E2  -1.360251173946876E-1  -2.889368788880606E1  
 1.900000000000000E9    -1.051113909393833E1  -5.033652806846085E1  -2.758473072138868E1   7.241205800754202E1   1.879067843237715E1   1.616398339679157E2  -1.429059635660804E-1  -3.046630761635372E1  
 2.000000000000000E9    -1.045271076472178E1  -5.229784701681498E1  -2.719430984517690E1   7.163833360938298E1   1.875803686106924E1   1.607838977372869E2  -1.538173955697525E-1  -3.193829183630408E1  
 2.100000000000000E9    -1.028806653833741E1  -5.466323806259408E1  -2.679507778208112E1   7.084381302074203E1   1.871287533252350E1   1.599020188462916E2  -1.711197627345954E-1  -3.350040357944184E1  
 2.200000000000000E9    -1.022054510100892E1  -5.659922042256650E1  -2.643232189275453E1   7.001362584595425E1   1.868577507779995E1   1.589679959728545E2  -1.903166600265238E-1  -3.496040714208663E1  
 2.300000000000000E9    -1.008947248185630E1  -5.870243168521155E1  -2.608379356857886E1   6.912593051535559E1   1.863264943675893E1   1.580594732310918E2  -2.093659467824759E-1  -3.643916837297029E1  
 2.400000000000000E9    -1.004156771375713E1  -6.053074652570415E1  -2.575053132260676E1   6.820989897007068E1   1.860731025304990E1   1.571877820512637E2  -2.132579933894005E-1  -3.794412201986145E1  
 2.500000000000000E9    -9.907488284564289  -6.288739265330114E1  -2.544488149567046E1   6.733577366898895E1   1.853297977207738E1   1.562885313907250E2  -2.471024529588581E-1  -3.940271939296648E1  
 2.600000000000000E9    -9.820629136260598  -6.443647810421597E1  -2.514002535616329E1   6.644929956888990E1   1.850134854726341E1   1.554718147761224E2  -2.583627465657546E-1  -4.084893608284588E1  
 2.700000000000000E9    -9.737306932756697  -6.658282062967497E1  -2.488185665082071E1   6.558639915005320E1   1.844114348022180E1   1.545116565440757E2  -2.869144054472583E-1  -4.229091908717408E1  
 2.800000000000000E9    -9.622986697449212  -6.807281708882658E1  -2.461124148513903E1   6.476866389836111E1   1.840665369294178E1   1.537695323298173E2  -2.938552490179500E-1  -4.371573994924908E1  
 2.900000000000000E9    -9.559632175013627  -6.977614846588075E1  -2.435350983657202E1   6.413913500477449E1   1.835547694426865E1   1.529618625209734E2  -3.144402148869054E-1  -4.504010904736628E1  
 3.000000000000000E9    -9.469433964204450  -7.143233040684865E1  -2.413151155467026E1   6.318950464434337E1   1.831416274932525E1   1.520743180493040E2  -3.356271950792121E-1  -4.645396623337961E1  
 3.100000000000000E9    -9.363405502539763  -7.315274696666590E1  -2.386626392935625E1   6.241498764225664E1   1.828178632289611E1   1.511891646716587E2  -3.430300944977762E-1  -4.790207997429214E1  
 3.200000000000000E9    -9.311795257140664  -7.447862446760810E1  -2.364251349625853E1   6.167961254120055E1   1.822314857733525E1   1.504377889618777E2  -3.803308734744926E-1  -4.926469489193191E1  
 3.300000000000000E9    -9.236394395133901  -7.624804443653071E1  -2.343221222527130E1   6.085274282658669E1   1.817678839258432E1   1.495873823228981E2  -3.833529323010181E-1  -5.060194465065268E1  
 3.400000000000000E9    -9.100224174692494  -7.798137203068605E1  -2.322465580111402E1   6.003624915480800E1   1.811965846501131E1   1.487698319620941E2  -4.223843817253418E-1  -5.196581812120369E1  
 3.500000000000000E9    -9.018612478828512  -7.958862806368877E1  -2.301841912456541E1   5.919339261696770E1   1.805917180892234E1   1.479372858724477E2  -4.333094784175265E-1  -5.329611620300057E1  
 3.600000000000000E9    -8.897912121919697  -8.109998719117071E1  -2.282292512783519E1   5.854880867002640E1   1.800607462179579E1   1.471119370349552E2  -4.468493081710502E-1  -5.464760313270495E1  
 3.700000000000000E9    -8.844058879447928  -8.259094310843746E1  -2.263372059888628E1   5.785306501353058E1   1.794707748829699E1   1.462910879398523E2  -4.570698678406665E-1  -5.606495243199821E1  
 3.800000000000000E9    -8.727641872917319  -8.421906393004063E1  -2.245564476554542E1   5.709330234551638E1   1.787943567773199E1   1.454799477557466E2  -4.814875185919286E-1  -5.742026265214967E1  
 3.900000000000000E9    -8.619057982548684  -8.544175455829314E1  -2.229917250109220E1   5.648748057268709E1   1.781638062564397E1   1.447867228710456E2  -4.934840063576345E-1  -5.864624902190518E1  
 4.000000000000000E9    -8.527419972937269  -8.680911078762912E1  -2.214863902233742E1   5.579486880790482E1   1.776007895547187E1   1.440774025642127E2  -5.187856297135570E-1  -5.987919811916967E1  
 4.100000000000000E9    -8.427693155352978  -8.810729937995029E1  -2.200024537347861E1   5.503113994881807E1   1.769074452663515E1   1.433746857576465E2  -5.386272423395271E-1  -6.121546748975745E1  
 4.200000000000000E9    -8.354150525509388  -8.973551562900040E1  -2.186621607047911E1   5.438564085673491E1   1.762755799015647E1   1.426029371724260E2  -5.516118628043721E-1  -6.249695725275812E1  
 4.300000000000000E9    -8.312215946853868  -9.070192485448540E1  -2.170698322905858E1   5.370983815022759E1   1.756606775604851E1   1.418827531773314E2  -5.705101306938890E-1  -6.369725686474033E1  
 4.400000000000000E9    -8.197390025044157  -9.253261522564716E1  -2.157763419877952E1   5.304350542206338E1   1.750006271692954E1   1.411729309911808E2  -5.854866893664070E-1  -6.490380188819187E1  
 4.500000000000000E9    -8.111193808400126  -9.345967872312646E1  -2.144171972639675E1   5.242895021636202E1   1.744063325582454E1   1.404284268500331E2  -6.146333838649647E-1  -6.606566946618575E1  
 4.600000000000000E9    -8.037646461288102  -9.490328703830288E1  -2.132443238524545E1   5.165556298944401E1   1.736593377234643E1   1.397124363522795E2  -6.387637768348033E-1  -6.734711239536983E1  
 4.700000000000000E9    -8.009804594788912  -9.602360679363419E1  -2.119727171594582E1   5.110225178731348E1   1.730762958756552E1   1.390808699732543E2  -6.521177474609740E-1  -6.845712932257382E1  
 4.800000000000000E9    -7.887568879781881  -9.720045788330694E1  -2.108788914382555E1   5.054023162907586E1   1.724409895460431E1   1.383736792347614E2  -6.644453678274380E-1  -6.961311195493552E1  
 4.900000000000000E9    -7.877730469376970  -9.806997474918853E1  -2.097833479634452E1   4.993016736949376E1   1.718828798550926E1   1.377368154207674E2  -6.856544581519469E-1  -7.076034413247358E1  
 5.000000000000000E9    -7.790194144781736  -9.926626442994076E1  -2.085607550778952E1   4.931310628878838E1   1.711818751480044E1   1.370422757037875E2  -7.184869572833641E-1  -7.186963830222864E1  
 5.100000000000000E9    -7.742975011658061  -9.996452053450538E1  -2.075048641572179E1   4.861209149896306E1   1.704745772220920E1   1.364052196268128E2  -7.431852238945621E-1  -7.296706637663546E1  
 5.200000000000000E9    -7.703282962031687  -1.013016548433188E2  -2.066891876214188E1   4.794200808749767E1   1.698535601496312E1   1.357423226720974E2  -7.520093511126742E-1  -7.407675969457915E1  
 5.300000000000000E9    -7.639220425980789  -1.023491857321257E2  -2.055427755529276E1   4.735531480275491E1   1.692056449981485E1   1.351173524029118E2  -7.748375856662816E-1  -7.517140773650731E1  
 5.400000000000000E9    -7.586018000309585  -1.033739110042454E2  -2.044674054572847E1   4.678590577637795E1   1.686302640674325E1   1.344679731643510E2  -7.850106778825298E-1  -7.626378021608826E1  
 5.500000000000000E9    -7.559842743057366  -1.045845429343925E2  -2.035797191915392E1   4.609521743100068E1   1.679580911516947E1   1.338430098357653E2  -8.116333910092733E-1  -7.731651479917535E1  
 5.600000000000000E9    -7.449820591041573  -1.051765850188310E2  -2.027672735391939E1   4.554690090699154E1   1.673591996368108E1   1.332656092202412E2  -8.363710896475423E-1  -7.837010258635861E1  
 5.700000000000000E9    -7.462911013583010  -1.063264655250856E2  -2.018308886407450E1   4.496831098408833E1   1.666847018746910E1   1.326297177700136E2  -8.461506709721470E-1  -7.942662729865474E1  
 5.800000000000000E9    -7.304516392507385  -1.071758383000765E2  -2.009890949755694E1   4.447339065377657E1   1.659960838432203E1   1.320892296396308E2  -8.732504313949739E-1  -8.039620633997680E1  
 5.900000000000000E9    -7.345126526439547  -1.078049597803066E2  -2.001116930079198E1   4.395053056513772E1   1.653507256875234E1   1.314460345041685E2  -8.924307560921145E-1  -8.145117615589587E1  
 6.000000000000000E9    -7.262209054630212  -1.090649312090256E2  -1.994125298276665E1   4.332030268669068E1   1.646493469467859E1   1.309009004515941E2  -9.163924433177370E-1  -8.240271761573332E1  
 6.100000000000000E9    -7.234924371030762  -1.095960338238216E2  -1.986484049080776E1   4.284827060105015E1   1.640261558144083E1   1.303315677841895E2  -9.216110190650800E-1  -8.341878829637933E1  
 6.200000000000000E9    -7.211841192903610  -1.105878262716267E2  -1.979388887613249E1   4.231782746321149E1   1.633657776538166E1   1.297345132133106E2  -9.379317306561075E-1  -8.430349905847680E1  
 6.300000000000000E9    -7.161352855097916  -1.117610972882435E2  -1.971812448592268E1   4.176616514075745E1   1.626103517475546E1   1.292218184459249E2  -9.505543217962852E-1  -8.535667508513123E1  
 6.400000000000000E9    -7.087866843067599  -1.121456399462488E2  -1.964319685073940E1   4.122614602269028E1   1.620404969161569E1   1.286834417500872E2  -9.778708272281109E-1  -8.628937940967494E1  
 6.500000000000000E9    -7.139760762427938  -1.133336481648135E2  -1.957220832605476E1   4.070299977017238E1   1.614025904937298E1   1.281251910146142E2  -9.888323484645314E-1  -8.727713593668086E1  
 6.600000000000000E9    -6.985658460992327  -1.141809598188389E2  -1.951780125331820E1   4.016009291788402E1   1.606433671105436E1   1.275545948425514E2  -1.008161013575998  -8.818708694409752E1  
 6.700000000000000E9    -7.029372785728146  -1.146542711283331E2  -1.944780425191095E1   3.976377386910315E1   1.600381713292415E1   1.270102007695553E2  -1.028116828095522  -8.913953528941069E1  
 6.800000000000000E9    -6.897896688049649  -1.158491461091764E2  -1.939384428819114E1   3.920019885202181E1   1.593234920654733E1   1.264379729180379E2  -1.034780514825793  -9.010303281252621E1  
 6.900000000000000E9    -6.846797198775842  -1.159808677659031E2  -1.933171909113471E1   3.870796574553310E1   1.586505919880026E1   1.258848677432173E2  -1.066561521757641  -9.100951638103123E1  
 7.000000000000000E9    -6.825356095148932  -1.176492632346911E2  -1.928208185772246E1   3.820449028953536E1   1.578919445207830E1   1.254059748424434E2  -1.071799685580976  -9.187142053131576E1  
 7.100000000000000E9    -6.799874486000407  -1.180423043882534E2  -1.922641195814220E1   3.770240500894604E1   1.572698560340561E1   1.249055929565629E2  -1.091930129129606  -9.269006540933876E1  
 7.200000000000000E9    -6.754493414724380  -1.190122525886271E2  -1.918606112053157E1   3.732347613072824E1   1.565386286424693E1   1.244327701033175E2  -1.108057821133251  -9.349775262387330E1  
 7.300000000000000E9    -6.735732625475993  -1.194915142490758E2  -1.912090432812407E1   3.683754129909332E1   1.558934498858729E1   1.238638855454600E2  -1.131264044205887  -9.440935409164158E1  
 7.400000000000000E9    -6.640808132181522  -1.202817397726325E2  -1.907677368990688E1   3.633042846411009E1   1.551436288048083E1   1.234363132983954E2  -1.152170989539835  -9.529085422265565E1  
 7.500000000000000E9    -6.662654848231700  -1.210393749738961E2  -1.904807290355535E1   3.591367207362634E1   1.545401507657855E1   1.229957828741402E2  -1.159166379412983  -9.612372639103727E1  
 7.600000000000000E9    -6.566239371287767  -1.218245371709586E2  -1.898423157511170E1   3.556106343019764E1   1.537899671419196E1   1.224792768992570E2  -1.171546683876670  -9.694726351247417E1  
 7.700000000000000E9    -6.514506400119666  -1.225409577742531E2  -1.892597070507259E1   3.508022386702171E1   1.530683946536390E1   1.220633308538254E2  -1.192704257480859  -9.775406414884304E1  
 7.800000000000000E9    -6.451005131366177  -1.230547043141859E2  -1.890284148630945E1   3.458263579610346E1   1.525641827667694E1   1.215627174110027E2  -1.199586751476723  -9.861762607509786E1  
 7.900000000000000E9    -6.471848840369542  -1.236232859148422E2  -1.886303619576217E1   3.423961016845570E1   1.518336827310590E1   1.210882567616741E2  -1.229170661252855  -9.945966129310035E1  
 8.000000000000000E9    -6.389868128726919  -1.242997044682188E2  -1.877719355539790E1   3.408390996935117E1   1.511673682927990E1   1.206616735211243E2  -1.240554267870284  -1.001633562982795E2  
 8.100000000000000E9    -6.472554373095091  -1.242702451262472E2  -1.874282788582189E1   3.326482798072226E1   1.507297407209147E1   1.204561787294658E2  -1.233567579899557  -1.007297790659335E2  
 8.200000000000000E9    -6.421686289642981  -1.256850398749300E2  -1.870063667844716E1   3.281647568684122E1   1.501333244793275E1   1.198604952082711E2  -1.258364071040496  -1.015298216583893E2  
 8.300000000000000E9    -6.363376753490943  -1.251745287835862E2  -1.866428804385876E1   3.251685754888290E1   1.495401595703523E1   1.194661953640364E2  -1.283554655239365  -1.022675248913537E2  
 8.400000000000000E9    -6.463349269428029  -1.260755250333625E2  -1.862785480891588E1   3.210123585090625E1   1.488653112370991E1   1.190003271907445E2  -1.301207737659337  -1.029688404194590E2  
 8.500000000000000E9    -6.347889910994817  -1.267748915109954E2  -1.857282089864754E1   3.174242867072814E1   1.483218728033281E1   1.185508913416042E2  -1.306546979855424  -1.037864232102945E2  
 8.600000000000000E9    -6.315493931034692  -1.266323464143343E2  -1.854130186369566E1   3.140089041526084E1   1.477301923336375E1   1.182039031952657E2  -1.322519056460175  -1.043180424552359E2  
 8.700000000000000E9    -6.337982667505880  -1.280278900059548E2  -1.849308616888504E1   3.092917384442788E1   1.471197454083479E1   1.176594036037876E2  -1.317223064322308  -1.051384156157158E2  
 8.800000000000000E9    -6.197268191403556  -1.283064348053877E2  -1.847791191370960E1   3.059605366316112E1   1.464522795950043E1   1.172453952660260E2  -1.343784461098589  -1.057745295560232E2  
 8.900000000000000E9    -6.332745811291174  -1.283097032880783E2  -1.842308986704577E1   3.033088399521830E1   1.459420171437603E1   1.168239861810689E2  -1.355583251451762  -1.065036538346918E2  
 9.000000000000000E9    -6.245893872685275  -1.301758354883679E2  -1.840525325017545E1   2.976996619615641E1   1.452426939468867E1   1.162809778468562E2  -1.347800514746139  -1.073036653164406E2  
 9.100000000000000E9    -6.230587698897023  -1.293517624127009E2  -1.836118709747964E1   2.946931169133229E1   1.447304793377823E1   1.159299627054212E2  -1.364175997886921  -1.080021822551200E2  
 9.200000000000000E9    -6.306260984102967  -1.315544226552847E2  -1.833928511691302E1   2.910978085243405E1   1.439317215634520E1   1.154596218621801E2  -1.376448066338455  -1.086464332797223E2  
 9.300000000000000E9    -6.085369388178699  -1.314765197795380E2  -1.830833690619442E1   2.868518525602432E1   1.433175230023389E1   1.150321776549580E2  -1.404049977280001  -1.093727944141231E2  
 9.400000000000000E9    -6.257612234571822  -1.313556328172277E2  -1.826707410437475E1   2.837536275250019E1   1.427592440480862E1   1.147259368907689E2  -1.410630480395371  -1.100120176274960E2  
 9.500000000000000E9    -6.162965693536148  -1.331210834859840E2  -1.825967811428868E1   2.795633065624114E1   1.421307073238011E1   1.142369707370325E2  -1.410032138992210  -1.108564698674196E2  
 9.600000000000000E9    -6.058802410583217  -1.326283379440072E2  -1.823503504829386E1   2.756846566902108E1   1.413520507784609E1   1.138109784327110E2  -1.415069900997135  -1.115065869698229E2  
 9.700000000000000E9    -6.171864143055469  -1.336426158998554E2  -1.820515120813452E1   2.725113979175902E1   1.408051688473044E1   1.134437008941128E2  -1.432302388148574  -1.121658192368188E2  
 9.800000000000000E9    -6.017806252866270  -1.344923872112335E2  -1.819899535611246E1   2.696040810326869E1   1.400270841582169E1   1.130607477124532E2  -1.445457152514460  -1.128258838875594E2  
 9.900000000000000E9    -6.048380073707408  -1.341836726403876E2  -1.817728149062752E1   2.661747613481015E1   1.394690137460512E1   1.127176655343053E2  -1.455958531044907  -1.133557859587317E2  
